! MS46522B
! 1629104/M1: 82820001
! 9/7/2022 4:15:14 PM
! D:\MESURE_MONTURE_07092022\LIGNE_35MM_2FR4.S2P
! CHANNEL.1
! TR.MEASUREMENT
! CORRECTED.DATA
# GHZ S RI R 50.0
! FREQ.GHZ         S11RE         S11IM         S21RE         S21IM         S12RE         S12IM         S22RE         S22IM         
!; PortSelection: Port_12
   0.001000000     0.0000644    0.0005189     1.0009260   -0.0016358     0.9987227   -0.0014708     0.0000767    0.0013921 
   0.001006209     0.0000806    0.0005384     1.0009760   -0.0016589     0.9987198   -0.0015261     0.0000608    0.0013704 
   0.001012456     0.0000606    0.0005762     1.0010220   -0.0017158     0.9987524   -0.0015381     0.0000694    0.0013477 
   0.001018743     0.0000707    0.0006105     1.0010200   -0.0016678     0.9987157   -0.0015174     0.0000831    0.0013461 
   0.001025068     0.0000896    0.0006281     1.0010910   -0.0017496     0.9987415   -0.0014886     0.0000762    0.0013363 
   0.001031432     0.0001016    0.0006498     1.0010170   -0.0017783     0.9987916   -0.0015554     0.0000591    0.0013640 
   0.001037836     0.0001164    0.0006649     1.0011490   -0.0018005     0.9988394   -0.0015292     0.0000794    0.0013871 
   0.001044280     0.0000906    0.0006807     1.0010380   -0.0017658     0.9987664   -0.0016421     0.0000621    0.0013537 
   0.001050764     0.0001130    0.0007162     1.0010290   -0.0017623     0.9987077   -0.0015219     0.0000693    0.0013703 
   0.001057288     0.0001321    0.0007417     1.0010910   -0.0017955     0.9987000   -0.0015462     0.0000595    0.0013736 
   0.001063853     0.0001180    0.0007511     1.0010770   -0.0018067     0.9987621   -0.0016266     0.0000660    0.0013934 
   0.001070458     0.0001249    0.0007520     1.0011080   -0.0018193     0.9987688   -0.0015755     0.0000491    0.0013890 
   0.001077104     0.0001283    0.0007858     1.0010570   -0.0018524     0.9988183   -0.0016047     0.0000533    0.0013877 
   0.001083792     0.0001115    0.0007943     1.0010760   -0.0018153     0.9987926   -0.0015966     0.0000750    0.0013862 
   0.001090521     0.0001171    0.0008292     1.0010950   -0.0018283     0.9987779   -0.0017278     0.0000668    0.0013906 
   0.001097292     0.0001301    0.0008250     1.0011640   -0.0019135     0.9987456   -0.0016765     0.0000691    0.0014222 
   0.001104105     0.0001246    0.0008419     1.0011920   -0.0018669     0.9987766   -0.0016731     0.0000692    0.0013713 
   0.001110960     0.0001057    0.0008522     1.0011370   -0.0018948     0.9986781   -0.0017169     0.0000242    0.0013989 
   0.001117858     0.0001254    0.0008553     1.0011300   -0.0018778     0.9987192   -0.0017095     0.0000576    0.0013699 
   0.001124799     0.0001186    0.0008973     1.0011900   -0.0018508     0.9987816   -0.0017382     0.0000508    0.0013833 
   0.001131782     0.0001443    0.0008871     1.0012340   -0.0018795     0.9988198   -0.0017048     0.0000602    0.0014205 
   0.001138809     0.0001391    0.0009106     1.0011540   -0.0017917     0.9987534   -0.0017403     0.0000521    0.0014164 
   0.001145880     0.0001391    0.0008747     1.0011890   -0.0019214     0.9987718   -0.0017935     0.0000461    0.0014071 
   0.001152995     0.0001507    0.0008957     1.0012100   -0.0018792     0.9987680   -0.0016913     0.0000809    0.0014476 
   0.001160153     0.0001513    0.0009316     1.0011370   -0.0018643     0.9987493   -0.0017288     0.0000618    0.0014513 
   0.001167357     0.0001576    0.0009272     1.0011380   -0.0019463     0.9987853   -0.0017952     0.0000383    0.0014448 
   0.001174605     0.0001628    0.0009282     1.0011590   -0.0019171     0.9987333   -0.0017652     0.0000673    0.0014414 
   0.001181898     0.0001496    0.0009541     1.0011750   -0.0019109     0.9987918   -0.0018114     0.0000441    0.0014436 
   0.001189236     0.0001447    0.0009573     1.0012300   -0.0019652     0.9987921   -0.0017829     0.0000521    0.0014579 
   0.001196620     0.0001442    0.0009578     1.0011410   -0.0019928     0.9987414   -0.0019183     0.0000408    0.0014569 
   0.001204049     0.0001430    0.0009596     1.0012380   -0.0020271     0.9987152   -0.0018780     0.0000605    0.0014508 
   0.001211525     0.0001563    0.0009831     1.0011530   -0.0019802     0.9987518   -0.0017519     0.0000290    0.0014829 
   0.001219047     0.0001835    0.0009924     1.0011250   -0.0020382     0.9986972   -0.0017375     0.0000462    0.0014390 
   0.001226616     0.0001699    0.0009851     1.0012140   -0.0019033     0.9987642   -0.0019553     0.0000551    0.0014953 
   0.001234232     0.0001611    0.0009973     1.0012240   -0.0020673     0.9986908   -0.0018857     0.0000371    0.0014874 
   0.001241895     0.0001839    0.0010138     1.0012580   -0.0019811     0.9987312   -0.0018370     0.0000403    0.0014898 
   0.001249606     0.0001574    0.0010338     1.0012260   -0.0020261     0.9987927   -0.0019325     0.0000688    0.0014946 
   0.001257365     0.0001739    0.0010299     1.0011880   -0.0019596     0.9987367   -0.0018936     0.0000356    0.0014858 
   0.001265172     0.0001632    0.0010413     1.0011670   -0.0019932     0.9987368   -0.0019192     0.0000688    0.0015069 
   0.001273027     0.0001555    0.0010506     1.0011810   -0.0020513     0.9987322   -0.0019645     0.0000340    0.0014973 
   0.001280931     0.0001727    0.0010471     1.0012550   -0.0021381     0.9987792   -0.0020184     0.0000457    0.0014829 
   0.001288884     0.0001838    0.0010807     1.0011630   -0.0020452     0.9987665   -0.0019711     0.0000436    0.0015526 
   0.001296887     0.0001723    0.0010783     1.0013040   -0.0020658     0.9987552   -0.0019270     0.0000395    0.0015247 
   0.001304939     0.0001864    0.0010976     1.0011860   -0.0020932     0.9987965   -0.0019539     0.0000337    0.0015489 
   0.001313041     0.0001771    0.0011084     1.0011280   -0.0022040     0.9987504   -0.0020367     0.0000394    0.0015247 
   0.001321194     0.0001954    0.0011297     1.0012180   -0.0021199     0.9986914   -0.0018666     0.0000116    0.0015311 
   0.001329397     0.0001668    0.0011372     1.0012180   -0.0021540     0.9987697   -0.0020408     0.0000276    0.0015346 
   0.001337651     0.0001621    0.0011298     1.0011330   -0.0021548     0.9987598   -0.0020850     0.0000458    0.0015569 
   0.001345956     0.0001588    0.0011484     1.0011460   -0.0021586     0.9986689   -0.0020284     0.0000137    0.0015696 
   0.001354313     0.0001784    0.0011431     1.0011510   -0.0021146     0.9987580   -0.0021019     0.0000349    0.0015363 
   0.001362722     0.0001608    0.0011756     1.0012470   -0.0022044     0.9987486   -0.0021457     0.0000126    0.0015724 
   0.001371183     0.0001585    0.0011695     1.0012300   -0.0021763     0.9987989   -0.0021546     0.0000425    0.0015661 
   0.001379696     0.0001741    0.0011958     1.0011410   -0.0021369     0.9987046   -0.0021314     0.0000177    0.0015912 
   0.001388263     0.0001701    0.0012088     1.0011610   -0.0021440     0.9986174   -0.0020723     0.0000282    0.0016042 
   0.001396882     0.0001763    0.0012171     1.0012530   -0.0022041     0.9986767   -0.0021655     0.0000388    0.0016007 
   0.001405555     0.0002007    0.0012352     1.0011130   -0.0022309     0.9986975   -0.0021659     0.0000363    0.0016207 
   0.001414282     0.0001568    0.0012379     1.0012160   -0.0023066     0.9988142   -0.0021195     0.0000291    0.0016128 
   0.001423063     0.0001776    0.0012261     1.0012850   -0.0022521     0.9987636   -0.0021680     0.0000324    0.0015973 
   0.001431899     0.0001736    0.0012616     1.0013290   -0.0023210     0.9987225   -0.0020702     0.0000559    0.0016351 
   0.001440789     0.0001864    0.0012444     1.0012090   -0.0022472     0.9987246   -0.0023008     0.0000418    0.0016116 
   0.001449735     0.0001725    0.0012734     1.0011800   -0.0021791     0.9987166   -0.0021956     0.0000033    0.0016299 
   0.001458736     0.0001756    0.0012965     1.0012160   -0.0022921     0.9987412   -0.0021880     0.0000224    0.0016723 
   0.001467793     0.0001787    0.0012974     1.0012020   -0.0022507     0.9986529   -0.0022743     0.0000259    0.0016538 
   0.001476907     0.0001907    0.0013172     1.0011650   -0.0023366     0.9987580   -0.0023209     0.0000274    0.0016683 
   0.001486077     0.0002052    0.0013092     1.0012720   -0.0023597     0.9986808   -0.0022826     0.0000058    0.0016544 
   0.001495303     0.0001514    0.0013028     1.0013330   -0.0022983     0.9986653   -0.0023845    -0.0000001    0.0016613 
   0.001504588     0.0001815    0.0013337     1.0012760   -0.0023282     0.9987343   -0.0022600     0.0000377    0.0016738 
   0.001513929     0.0001787    0.0013517     1.0011800   -0.0022661     0.9986928   -0.0023219     0.0000063    0.0017018 
   0.001523329     0.0001969    0.0013619     1.0012500   -0.0023597     0.9987019   -0.0023399     0.0000077    0.0016961 
   0.001532787     0.0002006    0.0013765     1.0012560   -0.0023932     0.9986949   -0.0023370     0.0000201    0.0017104 
   0.001542304     0.0001962    0.0014132     1.0012660   -0.0023948     0.9986752   -0.0023503     0.0000295    0.0017211 
   0.001551880     0.0002130    0.0014021     1.0013230   -0.0024496     0.9987581   -0.0023998     0.0000240    0.0017032 
   0.001561516     0.0001896    0.0014116     1.0012210   -0.0024166     0.9987237   -0.0023366     0.0000068    0.0017494 
   0.001571211     0.0001876    0.0014130     1.0011940   -0.0023885     0.9987544   -0.0024590     0.0000315    0.0017461 
   0.001580966     0.0001904    0.0014456     1.0011990   -0.0024536     0.9986767   -0.0023981     0.0000276    0.0017560 
   0.001590782     0.0002104    0.0014380     1.0012770   -0.0024540     0.9986809   -0.0023933     0.0000209    0.0017577 
   0.001600659     0.0001889    0.0014290     1.0013020   -0.0024461     0.9986997   -0.0025413     0.0000149    0.0017632 
   0.001610598     0.0001780    0.0014554     1.0012260   -0.0024793     0.9987651   -0.0025645     0.0000243    0.0017714 
   0.001620598     0.0002055    0.0014766     1.0010950   -0.0024662     0.9987292   -0.0025107     0.0000112    0.0017756 
   0.001630660     0.0001941    0.0014926     1.0013140   -0.0025038     0.9985970   -0.0024632    -0.0000165    0.0017867 
   0.001640784     0.0001894    0.0014875     1.0012110   -0.0025394     0.9987574   -0.0025649    -0.0000160    0.0018164 
   0.001650972     0.0001922    0.0014901     1.0011950   -0.0026056     0.9988298   -0.0025485    -0.0000100    0.0018038 
   0.001661222     0.0001789    0.0015304     1.0012450   -0.0025248     0.9987370   -0.0025469     0.0000057    0.0018424 
   0.001671537     0.0001882    0.0015221     1.0012920   -0.0025949     0.9986855   -0.0024712     0.0000316    0.0018346 
   0.001681915     0.0002001    0.0015376     1.0012610   -0.0026284     0.9987631   -0.0025755     0.0000047    0.0018459 
   0.001692358     0.0002006    0.0015727     1.0012660   -0.0025397     0.9986870   -0.0025882     0.0000069    0.0018792 
   0.001702866     0.0002190    0.0015487     1.0013310   -0.0026964     0.9986495   -0.0026245     0.0000076    0.0018676 
   0.001713438     0.0002059    0.0015599     1.0012570   -0.0026333     0.9986773   -0.0026644    -0.0000122    0.0018703 
   0.001724077     0.0001953    0.0015900     1.0013110   -0.0026696     0.9986855   -0.0025492     0.0000104    0.0018983 
   0.001734782     0.0002173    0.0016132     1.0013350   -0.0027116     0.9986548   -0.0026608     0.0000117    0.0018805 
   0.001745553     0.0002120    0.0016321     1.0012420   -0.0026894     0.9987173   -0.0026368    -0.0000063    0.0018820 
   0.001756391     0.0001955    0.0016515     1.0012350   -0.0027677     0.9986815   -0.0026120     0.0000063    0.0019042 
   0.001767296     0.0001801    0.0016425     1.0012040   -0.0027572     0.9985586   -0.0027457    -0.0000072    0.0019311 
   0.001778269     0.0002142    0.0016484     1.0013440   -0.0027194     0.9986439   -0.0027050     0.0000115    0.0019188 
   0.001789310     0.0001947    0.0016730     1.0012040   -0.0027939     0.9987517   -0.0027462     0.0000047    0.0019408 
   0.001800419     0.0002245    0.0016938     1.0011790   -0.0028053     0.9987710   -0.0028409    -0.0000010    0.0019695 
   0.001811598     0.0002016    0.0017020     1.0012330   -0.0028278     0.9987144   -0.0028437     0.0000010    0.0019532 
   0.001822846     0.0002040    0.0017325     1.0012170   -0.0027732     0.9987957   -0.0029004     0.0000251    0.0019568 
   0.001834164     0.0001877    0.0017125     1.0012230   -0.0028173     0.9987090   -0.0027814     0.0000018    0.0019904 
   0.001845552     0.0002089    0.0017403     1.0012180   -0.0028628     0.9986372   -0.0028723    -0.0000213    0.0019886 
   0.001857011     0.0002197    0.0017438     1.0012910   -0.0028999     0.9987209   -0.0028812    -0.0000059    0.0019967 
   0.001868541     0.0002068    0.0017802     1.0012300   -0.0028681     0.9987473   -0.0028877    -0.0000145    0.0020057 
   0.001880142     0.0002165    0.0017734     1.0013210   -0.0029481     0.9987291   -0.0029260    -0.0000085    0.0020406 
   0.001891816     0.0002231    0.0017745     1.0012820   -0.0028949     0.9987065   -0.0029733     0.0000111    0.0020194 
   0.001903562     0.0002202    0.0017946     1.0013800   -0.0029922     0.9987023   -0.0028682     0.0000163    0.0020401 
   0.001915381     0.0002369    0.0018177     1.0013630   -0.0028840     0.9988441   -0.0029432    -0.0000006    0.0020352 
   0.001927273     0.0002287    0.0018398     1.0013300   -0.0030337     0.9986665   -0.0028980     0.0000021    0.0020598 
   0.001939239     0.0002220    0.0018661     1.0011740   -0.0028609     0.9987354   -0.0030078    -0.0000129    0.0020953 
   0.001951280     0.0002017    0.0018628     1.0012220   -0.0030015     0.9986090   -0.0029884    -0.0000037    0.0020833 
   0.001963395     0.0002204    0.0018535     1.0013580   -0.0030831     0.9987515   -0.0030495     0.0000066    0.0020893 
   0.001975585     0.0002142    0.0018922     1.0012110   -0.0030219     0.9986811   -0.0030168    -0.0000165    0.0021026 
   0.001987852     0.0002284    0.0018957     1.0012730   -0.0030003     0.9985995   -0.0029865    -0.0000159    0.0021323 
   0.002000194     0.0002251    0.0019140     1.0012930   -0.0030492     0.9987139   -0.0031018    -0.0000148    0.0021257 
   0.002012613     0.0002260    0.0019183     1.0012430   -0.0030682     0.9987429   -0.0031410     0.0000090    0.0021499 
   0.002025109     0.0002275    0.0019441     1.0012770   -0.0031254     0.9986914   -0.0031636    -0.0000096    0.0021473 
   0.002037683     0.0002269    0.0019486     1.0012770   -0.0031309     0.9987292   -0.0031459    -0.0000084    0.0021697 
   0.002050334     0.0002337    0.0019724     1.0012330   -0.0031278     0.9986171   -0.0031442    -0.0000027    0.0021991 
   0.002063065     0.0002281    0.0019960     1.0013080   -0.0032549     0.9987524   -0.0032372    -0.0000115    0.0021902 
   0.002075874     0.0002171    0.0020008     1.0012480   -0.0031852     0.9987168   -0.0031967    -0.0000363    0.0022112 
   0.002088763     0.0002190    0.0020032     1.0012620   -0.0032533     0.9987908   -0.0032207    -0.0000129    0.0022016 
   0.002101732     0.0002189    0.0020343     1.0012530   -0.0032137     0.9988057   -0.0032519    -0.0000183    0.0022163 
   0.002114781     0.0002154    0.0020554     1.0012720   -0.0032525     0.9986441   -0.0033358    -0.0000090    0.0022349 
   0.002127911     0.0002069    0.0020538     1.0012030   -0.0033568     0.9986601   -0.0032386    -0.0000222    0.0022581 
   0.002141123     0.0002517    0.0020907     1.0011800   -0.0032119     0.9987748   -0.0033363    -0.0000111    0.0022784 
   0.002154417     0.0002259    0.0021048     1.0013290   -0.0033376     0.9986698   -0.0032901    -0.0000004    0.0022944 
   0.002167794     0.0002113    0.0020928     1.0012090   -0.0032729     0.9987136   -0.0033505     0.0000060    0.0022891 
   0.002181253     0.0002264    0.0021271     1.0011590   -0.0033007     0.9987348   -0.0033912    -0.0000117    0.0023029 
   0.002194796     0.0002225    0.0021466     1.0011930   -0.0033464     0.9986793   -0.0033441     0.0000007    0.0023001 
   0.002208424     0.0002521    0.0021388     1.0012430   -0.0034463     0.9987373   -0.0033046     0.0000073    0.0023399 
   0.002222136     0.0002332    0.0021567     1.0013120   -0.0035013     0.9987116   -0.0034624    -0.0000325    0.0023323 
   0.002235932     0.0002256    0.0021677     1.0013450   -0.0034614     0.9987735   -0.0034478    -0.0000061    0.0023397 
   0.002249815     0.0002263    0.0022000     1.0012570   -0.0034785     0.9986807   -0.0034685    -0.0000126    0.0023534 
   0.002263784     0.0002493    0.0021821     1.0013450   -0.0035260     0.9987341   -0.0035086    -0.0000149    0.0023784 
   0.002277839     0.0002350    0.0022239     1.0012780   -0.0035382     0.9986506   -0.0034531    -0.0000041    0.0024026 
   0.002291982     0.0002449    0.0022260     1.0013280   -0.0036039     0.9987860   -0.0034484     0.0000185    0.0024006 
   0.002306213     0.0002389    0.0022612     1.0012090   -0.0035209     0.9987909   -0.0035924    -0.0000015    0.0024329 
   0.002320532     0.0002389    0.0022657     1.0012590   -0.0035459     0.9987545   -0.0036008    -0.0000023    0.0024368 
   0.002334940     0.0002320    0.0022856     1.0012770   -0.0035611     0.9987048   -0.0036710    -0.0000048    0.0024490 
   0.002349437     0.0002494    0.0022930     1.0013380   -0.0036791     0.9987216   -0.0036119     0.0000098    0.0024545 
   0.002364025     0.0002297    0.0023107     1.0012900   -0.0037308     0.9987453   -0.0036333    -0.0000042    0.0024723 
   0.002378702     0.0002354    0.0023338     1.0013180   -0.0036949     0.9986613   -0.0036664    -0.0000088    0.0025067 
   0.002393472     0.0002540    0.0023403     1.0013900   -0.0036989     0.9987247   -0.0036711    -0.0000194    0.0025156 
   0.002408332     0.0002223    0.0023473     1.0012970   -0.0037509     0.9987963   -0.0037092    -0.0000103    0.0024984 
   0.002423285     0.0002522    0.0023905     1.0012400   -0.0036015     0.9986489   -0.0036103     0.0000068    0.0025509 
   0.002438331     0.0002372    0.0023911     1.0013190   -0.0037108     0.9987217   -0.0037587    -0.0000098    0.0025418 
   0.002453471     0.0002422    0.0024049     1.0013640   -0.0037338     0.9987081   -0.0038535    -0.0000111    0.0025809 
   0.002468704     0.0002151    0.0024464     1.0011910   -0.0038361     0.9986200   -0.0038246    -0.0000268    0.0025857 
   0.002484032     0.0002336    0.0024522     1.0012890   -0.0038791     0.9987150   -0.0038506    -0.0000141    0.0025919 
   0.002499455     0.0002369    0.0024801     1.0013170   -0.0038297     0.9986368   -0.0038340    -0.0000112    0.0026023 
   0.002514974     0.0002536    0.0024785     1.0013280   -0.0038827     0.9987346   -0.0039264    -0.0000140    0.0026062 
   0.002530589     0.0002372    0.0025037     1.0013500   -0.0039364     0.9987456   -0.0039122     0.0000181    0.0026308 
   0.002546301     0.0002413    0.0025270     1.0012850   -0.0039390     0.9987000   -0.0038991    -0.0000181    0.0026535 
   0.002562110     0.0002375    0.0025317     1.0012490   -0.0039207     0.9987336   -0.0039346    -0.0000019    0.0026625 
   0.002578018     0.0002316    0.0025602     1.0012680   -0.0039719     0.9986983   -0.0039425    -0.0000148    0.0026836 
   0.002594025     0.0002429    0.0025713     1.0013040   -0.0039889     0.9986802   -0.0039347    -0.0000036    0.0027040 
   0.002610131     0.0002467    0.0025801     1.0013320   -0.0039957     0.9986761   -0.0039900    -0.0000124    0.0027183 
   0.002626337     0.0002499    0.0025984     1.0012640   -0.0040843     0.9988022   -0.0040375    -0.0000001    0.0027332 
   0.002642643     0.0002386    0.0026348     1.0012490   -0.0039838     0.9986939   -0.0040931    -0.0000037    0.0027423 
