! MS46522B
! 1629104/M1: 82820001
! 9/7/2022 4:41:57 PM
! D:\MESURE_MONTURE_07092022\LIGNE_25MM_VIDE.S2P
! CHANNEL.1
! TR.MEASUREMENT
! CORRECTED.DATA
# GHZ S RI R 50.0
! FREQ.GHZ         S11RE         S11IM         S21RE         S21IM         S12RE         S12IM         S22RE         S22IM         
!; PortSelection: Port_12
   0.001000000    -0.0000842    0.0001190     1.0005420   -0.0010361     0.9989498   -0.0006757    -0.0000822    0.0008645 
   0.001006209    -0.0000724    0.0001487     1.0006600   -0.0010946     0.9989341   -0.0007587    -0.0000915    0.0008484 
   0.001012456    -0.0000835    0.0001880     1.0006120   -0.0010210     0.9989257   -0.0007203    -0.0000858    0.0008813 
   0.001018743    -0.0000629    0.0002133     1.0007070   -0.0010972     0.9989703   -0.0007237    -0.0000827    0.0008305 
   0.001025068    -0.0000770    0.0002116     1.0007350   -0.0012194     0.9989146   -0.0007605    -0.0001087    0.0008454 
   0.001031432    -0.0000838    0.0002308     1.0006680   -0.0011654     0.9989582   -0.0007727    -0.0000959    0.0008778 
   0.001037836    -0.0000506    0.0002631     1.0007200   -0.0012194     0.9990177   -0.0007677    -0.0001139    0.0008985 
   0.001044280    -0.0000639    0.0002745     1.0006990   -0.0011782     0.9989645   -0.0008285    -0.0001084    0.0008791 
   0.001050764    -0.0000471    0.0003125     1.0007390   -0.0011691     0.9989372   -0.0007366    -0.0000953    0.0008835 
   0.001057288    -0.0000235    0.0003128     1.0007610   -0.0011758     0.9989316   -0.0008128    -0.0001148    0.0008798 
   0.001063853    -0.0000351    0.0003301     1.0007270   -0.0012424     0.9990076   -0.0008010    -0.0001043    0.0008890 
   0.001070458    -0.0000400    0.0003603     1.0007690   -0.0011757     0.9989511   -0.0007860    -0.0001225    0.0009306 
   0.001077104    -0.0000612    0.0003683     1.0007430   -0.0011590     0.9990417   -0.0008264    -0.0001388    0.0009102 
   0.001083792    -0.0000404    0.0003783     1.0008230   -0.0012530     0.9989754   -0.0007917    -0.0001230    0.0009169 
   0.001090521    -0.0000442    0.0003975     1.0007980   -0.0012173     0.9989619   -0.0009049    -0.0001109    0.0008943 
   0.001097292    -0.0000310    0.0003999     1.0008050   -0.0012513     0.9990239   -0.0008430    -0.0000907    0.0009241 
   0.001104105    -0.0000360    0.0004083     1.0008230   -0.0012278     0.9989930   -0.0009011    -0.0001260    0.0008815 
   0.001110960    -0.0000392    0.0004251     1.0007500   -0.0012119     0.9989001   -0.0008661    -0.0001232    0.0009404 
   0.001117858    -0.0000168    0.0004293     1.0007650   -0.0012200     0.9989050   -0.0008541    -0.0001123    0.0009205 
   0.001124799    -0.0000391    0.0004452     1.0008090   -0.0011792     0.9989737   -0.0008969    -0.0001163    0.0009149 
   0.001131782    -0.0000161    0.0004544     1.0008820   -0.0011981     0.9989569   -0.0008682    -0.0001186    0.0009049 
   0.001138809    -0.0000315    0.0004875     1.0008040   -0.0011955     0.9989583   -0.0008633    -0.0001223    0.0009338 
   0.001145880    -0.0000159    0.0004460     1.0008410   -0.0012944     0.9989361   -0.0009663    -0.0001648    0.0009237 
   0.001152995    -0.0000133    0.0004742     1.0008530   -0.0011717     0.9989759   -0.0008311    -0.0001104    0.0009334 
   0.001160153    -0.0000620    0.0004812     1.0008030   -0.0012613     0.9989945   -0.0009008    -0.0000835    0.0009375 
   0.001167357     0.0000026    0.0004994     1.0008010   -0.0012834     0.9990003   -0.0009127    -0.0001337    0.0009341 
   0.001174605    -0.0000293    0.0004991     1.0008110   -0.0012616     0.9989146   -0.0009925    -0.0001292    0.0009376 
   0.001181898    -0.0000280    0.0005215     1.0007830   -0.0011975     0.9989219   -0.0009133    -0.0001343    0.0009699 
   0.001189236    -0.0000329    0.0005376     1.0007900   -0.0013156     0.9989588   -0.0009108    -0.0001383    0.0009885 
   0.001196620    -0.0000407    0.0005393     1.0007870   -0.0013096     0.9989461   -0.0009902    -0.0001478    0.0009776 
   0.001204049    -0.0000441    0.0005235     1.0007990   -0.0012987     0.9990286   -0.0009812    -0.0001495    0.0009651 
   0.001211525    -0.0000326    0.0005713     1.0008120   -0.0012942     0.9990329   -0.0009660    -0.0001629    0.0009807 
   0.001219047    -0.0000158    0.0005556     1.0008770   -0.0013659     0.9988964   -0.0008655    -0.0001435    0.0009800 
   0.001226616    -0.0000162    0.0005579     1.0009350   -0.0012910     0.9989694   -0.0009694    -0.0001065    0.0009762 
   0.001234232    -0.0000310    0.0005614     1.0008590   -0.0013965     0.9989666   -0.0009356    -0.0001453    0.0010030 
   0.001241895    -0.0000109    0.0005728     1.0008270   -0.0013483     0.9989239   -0.0009764    -0.0001629    0.0009724 
   0.001249606    -0.0000439    0.0005916     1.0008220   -0.0012642     0.9990049   -0.0010283    -0.0001469    0.0009981 
   0.001257365    -0.0000199    0.0005847     1.0008390   -0.0013448     0.9989591   -0.0010064    -0.0001709    0.0009881 
   0.001265172    -0.0000312    0.0005978     1.0008210   -0.0013765     0.9989713   -0.0010130    -0.0001335    0.0010045 
   0.001273027    -0.0000205    0.0006228     1.0008050   -0.0013803     0.9989559   -0.0010052    -0.0001635    0.0009996 
   0.001280931    -0.0000044    0.0005963     1.0009360   -0.0014071     0.9989944   -0.0010568    -0.0001543    0.0009836 
   0.001288884    -0.0000218    0.0006343     1.0009540   -0.0013659     0.9989573   -0.0009825    -0.0001420    0.0010385 
   0.001296887    -0.0000267    0.0006371     1.0009710   -0.0013335     0.9989673   -0.0010248    -0.0001583    0.0010389 
   0.001304939    -0.0000122    0.0006423     1.0009050   -0.0014252     0.9990106   -0.0010655    -0.0001560    0.0010407 
   0.001313041    -0.0000278    0.0006474     1.0008230   -0.0014523     0.9989904   -0.0011214    -0.0001491    0.0010090 
   0.001321194    -0.0000144    0.0006651     1.0008870   -0.0014272     0.9989084   -0.0009088    -0.0001960    0.0010507 
   0.001329397    -0.0000015    0.0006634     1.0009380   -0.0013841     0.9989842   -0.0011760    -0.0001439    0.0010297 
   0.001337651    -0.0000137    0.0006745     1.0008230   -0.0014560     0.9989118   -0.0011473    -0.0001460    0.0010347 
   0.001345956    -0.0000246    0.0006900     1.0008480   -0.0014624     0.9989061   -0.0011180    -0.0001762    0.0010501 
   0.001354313    -0.0000078    0.0006831     1.0008090   -0.0013841     0.9989990   -0.0010630    -0.0001743    0.0010545 
   0.001362722    -0.0000123    0.0007076     1.0009310   -0.0014554     0.9989377   -0.0011654    -0.0001943    0.0010591 
   0.001371183    -0.0000137    0.0007125     1.0009620   -0.0014444     0.9988946   -0.0011449    -0.0001614    0.0010721 
   0.001379696    -0.0000252    0.0007311     1.0007800   -0.0013895     0.9988911   -0.0011433    -0.0001556    0.0011041 
   0.001388263     0.0000038    0.0007340     1.0008580   -0.0013931     0.9989353   -0.0011808    -0.0001799    0.0010766 
   0.001396882    -0.0000114    0.0007477     1.0008500   -0.0014276     0.9989097   -0.0011632    -0.0001853    0.0010955 
   0.001405555    -0.0000001    0.0007622     1.0007900   -0.0015503     0.9988686   -0.0012006    -0.0002019    0.0011313 
   0.001414282    -0.0000303    0.0007540     1.0008270   -0.0014944     0.9989752   -0.0012264    -0.0001831    0.0010821 
   0.001423063    -0.0000149    0.0007347     1.0009080   -0.0014315     0.9990414   -0.0012141    -0.0001499    0.0010843 
   0.001431899    -0.0000576    0.0008560     1.0004440   -0.0015568     0.9990264   -0.0010188    -0.0001812    0.0011182 
   0.001440789    -0.0000134    0.0007754     1.0009070   -0.0015208     0.9989666   -0.0013107    -0.0001886    0.0010950 
   0.001449735    -0.0000069    0.0007816     1.0009140   -0.0014553     0.9989839   -0.0012150    -0.0001840    0.0010993 
   0.001458736    -0.0000404    0.0008322     1.0008850   -0.0014976     0.9989734   -0.0011935    -0.0002148    0.0011425 
   0.001467793    -0.0000112    0.0007869     1.0008210   -0.0014497     0.9989663   -0.0012286    -0.0001896    0.0011220 
   0.001476907    -0.0000151    0.0008159     1.0008270   -0.0015764     0.9989581   -0.0012508    -0.0001812    0.0011495 
   0.001486077    -0.0000126    0.0008249     1.0009320   -0.0015427     0.9989033   -0.0012227    -0.0002019    0.0011353 
   0.001495303    -0.0000453    0.0008486     1.0009930   -0.0015296     0.9988705   -0.0013226    -0.0002050    0.0011485 
   0.001504588    -0.0000480    0.0008507     1.0010440   -0.0015377     0.9989258   -0.0012499    -0.0001959    0.0011542 
   0.001513929    -0.0000151    0.0008644     1.0009310   -0.0015181     0.9988483   -0.0012089    -0.0002079    0.0011552 
   0.001523329    -0.0000197    0.0008698     1.0009500   -0.0015703     0.9989687   -0.0012633    -0.0002106    0.0011666 
   0.001532787    -0.0000072    0.0008849     1.0009240   -0.0015635     0.9989336   -0.0013224    -0.0002047    0.0011969 
   0.001542304    -0.0000251    0.0009239     1.0008380   -0.0015824     0.9989656   -0.0013531    -0.0002006    0.0012094 
   0.001551880    -0.0000172    0.0009265     1.0010090   -0.0015946     0.9989965   -0.0013219    -0.0002011    0.0012094 
   0.001561516    -0.0000191    0.0009122     1.0009650   -0.0016234     0.9989563   -0.0013439    -0.0002215    0.0012041 
   0.001571211    -0.0000158    0.0009471     1.0008900   -0.0016435     0.9989844   -0.0013393    -0.0001960    0.0012078 
   0.001580966    -0.0000082    0.0009466     1.0008420   -0.0015363     0.9989753   -0.0014125    -0.0002165    0.0012267 
   0.001590782    -0.0000219    0.0009414     1.0008890   -0.0016164     0.9989831   -0.0013720    -0.0002080    0.0012301 
   0.001600659    -0.0000084    0.0009345     1.0010170   -0.0015961     0.9989578   -0.0014371    -0.0002181    0.0012422 
   0.001610598    -0.0000389    0.0009584     1.0009100   -0.0016608     0.9989063   -0.0014956    -0.0002368    0.0012254 
   0.001620598    -0.0000290    0.0009675     1.0008110   -0.0016249     0.9989858   -0.0013955    -0.0002206    0.0012517 
   0.001630660    -0.0000186    0.0009883     1.0009610   -0.0016779     0.9988850   -0.0013607    -0.0002570    0.0012598 
   0.001640784    -0.0000055    0.0009852     1.0009450   -0.0017211     0.9989373   -0.0014528    -0.0002464    0.0012862 
   0.001650972    -0.0000085    0.0009947     1.0008920   -0.0017280     0.9990484   -0.0014419    -0.0002324    0.0012783 
   0.001661222    -0.0000338    0.0010253     1.0009830   -0.0016838     0.9989702   -0.0014543    -0.0002232    0.0012852 
   0.001671537    -0.0000181    0.0010318     1.0010090   -0.0017128     0.9989876   -0.0013530    -0.0002022    0.0012998 
   0.001681915    -0.0000032    0.0010397     1.0010100   -0.0017364     0.9989471   -0.0014906    -0.0002239    0.0013093 
   0.001692358    -0.0000128    0.0010583     1.0009940   -0.0016816     0.9989696   -0.0015402    -0.0002124    0.0013188 
   0.001702866     0.0000081    0.0010652     1.0009560   -0.0017639     0.9989492   -0.0014893    -0.0002084    0.0013361 
   0.001713438    -0.0000028    0.0010825     1.0009630   -0.0018203     0.9989223   -0.0015020    -0.0002303    0.0013250 
   0.001724077    -0.0000008    0.0010780     1.0010240   -0.0017801     0.9989170   -0.0015376    -0.0002107    0.0013506 
   0.001734782    -0.0000027    0.0010929     1.0009940   -0.0018164     0.9989126   -0.0015172    -0.0002159    0.0013481 
   0.001745553    -0.0000017    0.0010935     1.0009180   -0.0017133     0.9989854   -0.0015274    -0.0002058    0.0013417 
   0.001756391    -0.0000116    0.0011281     1.0009480   -0.0017857     0.9989232   -0.0015372    -0.0002165    0.0013671 
   0.001767296    -0.0000092    0.0011228     1.0009520   -0.0017311     0.9989001   -0.0015184    -0.0002043    0.0013603 
   0.001778269     0.0000016    0.0011349     1.0010440   -0.0018471     0.9989170   -0.0015290    -0.0002094    0.0013738 
   0.001789310    -0.0000429    0.0011403     1.0009580   -0.0019135     0.9990432   -0.0015680    -0.0002091    0.0013593 
   0.001800419     0.0000028    0.0011672     1.0008700   -0.0018866     0.9990098   -0.0015928    -0.0002126    0.0013959 
   0.001811598     0.0000000    0.0011601     1.0010250   -0.0018419     0.9989235   -0.0016376    -0.0002171    0.0013950 
   0.001822846    -0.0000143    0.0011671     1.0009150   -0.0019151     0.9989479   -0.0016841    -0.0002244    0.0013924 
   0.001834164    -0.0000391    0.0011751     1.0010040   -0.0018606     0.9988879   -0.0016666    -0.0002292    0.0014077 
   0.001845552    -0.0000336    0.0011942     1.0009150   -0.0019289     0.9988967   -0.0016467    -0.0002534    0.0014249 
   0.001857011    -0.0000114    0.0012034     1.0010160   -0.0019207     0.9989589   -0.0017485    -0.0002458    0.0014267 
   0.001868541    -0.0000194    0.0012385     1.0009560   -0.0018834     0.9989717   -0.0016793    -0.0002574    0.0014528 
   0.001880142    -0.0000271    0.0012307     1.0009340   -0.0020027     0.9989837   -0.0016626    -0.0002600    0.0014536 
   0.001891816    -0.0000037    0.0012383     1.0008350   -0.0018988     0.9989481   -0.0017011    -0.0002286    0.0014473 
   0.001903562    -0.0000298    0.0012657     1.0009960   -0.0020069     0.9989785   -0.0017331    -0.0002279    0.0014530 
   0.001915381     0.0000172    0.0012739     1.0010580   -0.0019136     0.9990320   -0.0016551    -0.0002362    0.0014663 
   0.001927273    -0.0000105    0.0012823     1.0009990   -0.0020743     0.9989734   -0.0017205    -0.0002332    0.0014703 
   0.001939239    -0.0000019    0.0012945     1.0008600   -0.0018591     0.9989517   -0.0017413    -0.0002279    0.0015085 
   0.001951280    -0.0000108    0.0013002     1.0009820   -0.0019519     0.9989160   -0.0017277    -0.0002117    0.0015169 
   0.001963395    -0.0000117    0.0013095     1.0010840   -0.0020881     0.9989564   -0.0017511    -0.0002174    0.0014983 
   0.001975585    -0.0000021    0.0013349     1.0010150   -0.0020032     0.9989667   -0.0017784    -0.0002261    0.0015066 
   0.001987852     0.0000092    0.0013439     1.0009950   -0.0020148     0.9988934   -0.0016886    -0.0002344    0.0015469 
   0.002000194    -0.0000333    0.0013373     1.0010490   -0.0020978     0.9990112   -0.0019014    -0.0002557    0.0015321 
   0.002012613     0.0000147    0.0013653     1.0010060   -0.0020638     0.9989727   -0.0018237    -0.0002084    0.0015553 
   0.002025109     0.0000055    0.0013964     1.0009490   -0.0020609     0.9989173   -0.0018559    -0.0002443    0.0015667 
   0.002037683    -0.0000007    0.0013802     1.0009880   -0.0019993     0.9989881   -0.0018436    -0.0002508    0.0015720 
   0.002050334    -0.0000055    0.0014014     1.0009740   -0.0021459     0.9989967   -0.0018554    -0.0002182    0.0015942 
   0.002063065    -0.0000133    0.0014329     1.0010390   -0.0022188     0.9989756   -0.0018780    -0.0002484    0.0015943 
   0.002075874    -0.0000014    0.0014222     1.0009430   -0.0021063     0.9989656   -0.0018867    -0.0002508    0.0016037 
   0.002088763    -0.0000045    0.0014387     1.0009900   -0.0021805     0.9989446   -0.0019640    -0.0002610    0.0015917 
   0.002101732    -0.0000109    0.0014561     1.0008820   -0.0020601     0.9989806   -0.0019615    -0.0002340    0.0016154 
   0.002114781    -0.0000196    0.0014872     1.0009380   -0.0021088     0.9989505   -0.0020167    -0.0002531    0.0016239 
   0.002127911    -0.0000284    0.0014704     1.0009750   -0.0023765     0.9989102   -0.0019289    -0.0002591    0.0016463 
   0.002141123     0.0000008    0.0015238     1.0008020   -0.0021694     0.9989303   -0.0020167    -0.0002613    0.0016518 
   0.002154417    -0.0000018    0.0015347     1.0008120   -0.0021289     0.9988456   -0.0019531    -0.0002485    0.0016837 
   0.002167794    -0.0000066    0.0015118     1.0010740   -0.0024085     0.9989702   -0.0021012    -0.0002444    0.0016610 
   0.002181253     0.0000042    0.0015371     1.0009710   -0.0021519     0.9989671   -0.0020952    -0.0002406    0.0016835 
   0.002194796    -0.0000019    0.0015526     1.0010120   -0.0023283     0.9988693   -0.0020073    -0.0002479    0.0016881 
   0.002208424     0.0000195    0.0015551     1.0010130   -0.0023054     0.9990021   -0.0020316    -0.0002426    0.0017166 
   0.002222136     0.0000021    0.0015624     1.0010300   -0.0024123     0.9990099   -0.0020547    -0.0002572    0.0017059 
   0.002235932     0.0000175    0.0015684     1.0010900   -0.0022980     0.9990104   -0.0020914    -0.0002437    0.0017094 
   0.002249815    -0.0000008    0.0015833     1.0010840   -0.0023504     0.9990091   -0.0020994    -0.0002336    0.0017207 
   0.002263784     0.0000107    0.0015932     1.0010830   -0.0023623     0.9990022   -0.0020712    -0.0002297    0.0017376 
   0.002277839     0.0000006    0.0016246     1.0010330   -0.0023985     0.9989309   -0.0020620    -0.0002421    0.0017601 
   0.002291982     0.0000185    0.0016273     1.0010400   -0.0023707     0.9990264   -0.0020943    -0.0002209    0.0017499 
   0.002306213    -0.0000028    0.0016465     1.0009950   -0.0024104     0.9990165   -0.0022402    -0.0002528    0.0017835 
   0.002320532     0.0000068    0.0016479     1.0010370   -0.0023803     0.9990222   -0.0022660    -0.0002288    0.0017791 
   0.002334940     0.0000094    0.0016663     1.0010420   -0.0024748     0.9989866   -0.0022121    -0.0002516    0.0018006 
   0.002349437     0.0000062    0.0016815     1.0010930   -0.0023851     0.9989327   -0.0022110    -0.0002221    0.0017997 
   0.002364025    -0.0000051    0.0016918     1.0009510   -0.0025301     0.9989792   -0.0022018    -0.0002308    0.0018233 
   0.002378702     0.0000097    0.0017041     1.0010660   -0.0025252     0.9989788   -0.0022317    -0.0002273    0.0018420 
   0.002393472     0.0000300    0.0017228     1.0010960   -0.0024448     0.9990597   -0.0022261    -0.0002403    0.0018482 
   0.002408332    -0.0000136    0.0017294     1.0009670   -0.0025503     0.9989958   -0.0022474    -0.0002281    0.0018521 
   0.002423285     0.0000181    0.0017538     1.0009930   -0.0024429     0.9989097   -0.0022288    -0.0002412    0.0018738 
   0.002438331    -0.0000016    0.0017669     1.0010670   -0.0025297     0.9990870   -0.0022527    -0.0002191    0.0018581 
   0.002453471     0.0000041    0.0017789     1.0009850   -0.0025065     0.9991134   -0.0022925    -0.0002336    0.0018993 
   0.002468704    -0.0000055    0.0017993     1.0010180   -0.0026201     0.9990389   -0.0024047    -0.0002339    0.0018840 
   0.002484032     0.0000115    0.0018271     1.0010550   -0.0026249     0.9989700   -0.0022739    -0.0002532    0.0019189 
   0.002499455     0.0000213    0.0018281     1.0010960   -0.0026126     0.9989390   -0.0023114    -0.0002392    0.0019378 
   0.002514974     0.0000279    0.0018501     1.0011190   -0.0025788     0.9989550   -0.0024454    -0.0002472    0.0019364 
   0.002530589     0.0000331    0.0018554     1.0010990   -0.0026727     0.9990345   -0.0023664    -0.0002197    0.0019350 
   0.002546301     0.0000284    0.0018652     1.0010760   -0.0027016     0.9990377   -0.0024461    -0.0002409    0.0019557 
   0.002562110     0.0000139    0.0018692     1.0010550   -0.0026676     0.9990305   -0.0024083    -0.0002432    0.0019553 
   0.002578018    -0.0000017    0.0018879     1.0010350   -0.0026876     0.9990052   -0.0024472    -0.0002365    0.0019814 
   0.002594025     0.0000120    0.0019068     1.0010930   -0.0027358     0.9989370   -0.0024312    -0.0002391    0.0020090 
   0.002610131     0.0000252    0.0019286     1.0010410   -0.0026577     0.9989693   -0.0024574    -0.0002399    0.0020151 
   0.002626337     0.0000118    0.0019278     1.0010220   -0.0027867     0.9991077   -0.0024768    -0.0002312    0.0020287 
   0.002642643     0.0000137    0.0019534     1.0010620   -0.0026772     0.9989984   -0.0025407    -0.0002375    0.0020227 
