! MS46522B
! 1629104/M1: 82820001
! 9/7/2022 4:16:36 PM
! D:\MESURE_MONTURE_07092022\LIGNE_35MM_4ROGERS.S2P
! CHANNEL.1
! TR.MEASUREMENT
! CORRECTED.DATA
# GHZ S RI R 50.0
! FREQ.GHZ         S11RE         S11IM         S21RE         S21IM         S12RE         S12IM         S22RE         S22IM         
!; PortSelection: Port_12
   0.001000000     0.0000430    0.0005204     1.0009260   -0.0016316     0.9987528   -0.0013906     0.0000532    0.0013755 
   0.001006209     0.0000543    0.0005541     1.0010040   -0.0017215     0.9988052   -0.0014399     0.0000423    0.0013583 
   0.001012456     0.0000342    0.0005912     1.0009510   -0.0016188     0.9987110   -0.0014600     0.0000469    0.0013638 
   0.001018743     0.0000329    0.0006133     1.0009470   -0.0016821     0.9986956   -0.0015111     0.0000496    0.0013497 
   0.001025068     0.0000742    0.0006079     1.0011030   -0.0017969     0.9988210   -0.0013603     0.0000615    0.0013175 
   0.001031432     0.0000802    0.0006304     1.0010390   -0.0017448     0.9988164   -0.0014824     0.0000530    0.0013696 
   0.001037836     0.0000779    0.0006460     1.0011250   -0.0017972     0.9987823   -0.0014870     0.0000411    0.0013562 
   0.001044280     0.0000856    0.0006745     1.0010730   -0.0017359     0.9988253   -0.0015487     0.0000603    0.0013450 
   0.001050764     0.0000911    0.0007107     1.0010800   -0.0018028     0.9987678   -0.0013876     0.0000507    0.0013545 
   0.001057288     0.0001123    0.0007323     1.0010460   -0.0017948     0.9987524   -0.0015580     0.0000220    0.0013689 
   0.001063853     0.0000879    0.0007362     1.0011200   -0.0018377     0.9987832   -0.0015392     0.0000581    0.0013716 
   0.001070458     0.0001000    0.0007706     1.0010870   -0.0018074     0.9987531   -0.0015189     0.0000333    0.0013865 
   0.001077104     0.0001210    0.0007885     1.0011570   -0.0018455     0.9988688   -0.0015966     0.0000329    0.0013852 
   0.001083792     0.0000902    0.0007763     1.0011610   -0.0018351     0.9987668   -0.0015106     0.0000365    0.0013881 
   0.001090521     0.0001102    0.0008155     1.0011180   -0.0018004     0.9987875   -0.0016115     0.0000170    0.0014003 
   0.001097292     0.0001235    0.0008206     1.0011170   -0.0018545     0.9987852   -0.0015730     0.0000435    0.0013998 
   0.001104105     0.0001128    0.0008383     1.0011570   -0.0018134     0.9987649   -0.0016468     0.0000496    0.0013794 
   0.001110960     0.0000953    0.0008526     1.0011190   -0.0018253     0.9987096   -0.0016214     0.0000330    0.0013799 
   0.001117858     0.0001049    0.0008547     1.0011820   -0.0018707     0.9986681   -0.0016020     0.0000164    0.0013796 
   0.001124799     0.0001039    0.0008831     1.0011560   -0.0018421     0.9987525   -0.0016212     0.0000346    0.0014097 
   0.001131782     0.0001395    0.0008610     1.0012160   -0.0017856     0.9987804   -0.0016301     0.0000277    0.0014095 
   0.001138809     0.0001241    0.0009318     1.0011150   -0.0017943     0.9987421   -0.0016142     0.0000340    0.0014195 
   0.001145880     0.0001330    0.0008815     1.0011560   -0.0019344     0.9987727   -0.0017097     0.0000003    0.0014155 
   0.001152995     0.0001174    0.0008996     1.0012360   -0.0018852     0.9987287   -0.0016219     0.0000118    0.0014504 
   0.001160153     0.0001011    0.0009194     1.0011690   -0.0018646     0.9987493   -0.0016926     0.0000519    0.0014356 
   0.001167357     0.0001309    0.0009204     1.0011980   -0.0019245     0.9987672   -0.0017072     0.0000038    0.0014354 
   0.001174605     0.0001394    0.0009274     1.0012050   -0.0018782     0.9987333   -0.0016922     0.0000533    0.0014484 
   0.001181898     0.0001264    0.0009471     1.0011240   -0.0019116     0.9987533   -0.0017025     0.0000198    0.0014415 
   0.001189236     0.0001253    0.0009701     1.0011340   -0.0019108     0.9987985   -0.0017112     0.0000307    0.0014768 
   0.001196620     0.0001139    0.0009544     1.0010760   -0.0019134     0.9987584   -0.0018550     0.0000084    0.0014587 
   0.001204049     0.0001208    0.0009557     1.0011530   -0.0019536     0.9987395   -0.0018145     0.0000361    0.0014609 
   0.001211525     0.0001391    0.0009844     1.0012480   -0.0020143     0.9987966   -0.0017580     0.0000251    0.0014639 
   0.001219047     0.0001505    0.0009744     1.0011320   -0.0018999     0.9987388   -0.0016799     0.0000318    0.0014766 
   0.001226616     0.0001500    0.0009916     1.0012280   -0.0019328     0.9987271   -0.0018250     0.0000423    0.0014752 
   0.001234232     0.0001245    0.0010031     1.0012330   -0.0020728     0.9986843   -0.0017064     0.0000134    0.0015038 
   0.001241895     0.0001406    0.0010303     1.0011990   -0.0019522     0.9986815   -0.0017157     0.0000288    0.0015108 
   0.001249606     0.0001468    0.0010293     1.0012020   -0.0020215     0.9987912   -0.0019010     0.0000148    0.0015043 
   0.001257365     0.0001468    0.0010143     1.0012300   -0.0020209     0.9987031   -0.0018033    -0.0000175    0.0015027 
   0.001265172     0.0001244    0.0010289     1.0011720   -0.0019977     0.9987028   -0.0018236     0.0000257    0.0015137 
   0.001273027     0.0001332    0.0010642     1.0011770   -0.0020809     0.9987047   -0.0018697     0.0000152    0.0014944 
   0.001280931     0.0001262    0.0010745     1.0012180   -0.0020562     0.9987519   -0.0019408     0.0000123    0.0014879 
   0.001288884     0.0001581    0.0010727     1.0011660   -0.0019668     0.9987223   -0.0018681    -0.0000024    0.0015554 
   0.001296887     0.0001655    0.0010747     1.0013330   -0.0020626     0.9987605   -0.0019096    -0.0000053    0.0015416 
   0.001304939     0.0001692    0.0010934     1.0012480   -0.0020863     0.9987605   -0.0018902     0.0000079    0.0015487 
   0.001313041     0.0001207    0.0011032     1.0012260   -0.0021744     0.9987486   -0.0019465     0.0000187    0.0015278 
   0.001321194     0.0001509    0.0011268     1.0012280   -0.0021357     0.9986989   -0.0018741    -0.0000013    0.0015478 
   0.001329397     0.0001469    0.0011426     1.0012330   -0.0020788     0.9987879   -0.0020306     0.0000158    0.0015545 
   0.001337651     0.0001460    0.0011263     1.0012040   -0.0021615     0.9987276   -0.0020348     0.0000105    0.0015567 
   0.001345956     0.0001470    0.0011437     1.0012250   -0.0021625     0.9986920   -0.0019337     0.0000091    0.0015779 
   0.001354313     0.0001719    0.0011662     1.0011710   -0.0021544     0.9987441   -0.0019581    -0.0000160    0.0015669 
   0.001362722     0.0001563    0.0011706     1.0012390   -0.0022033     0.9987448   -0.0021503    -0.0000323    0.0015286 
   0.001371183     0.0001157    0.0011873     1.0012870   -0.0022664     0.9987065   -0.0020513    -0.0000088    0.0015786 
   0.001379696     0.0001456    0.0012044     1.0011240   -0.0021417     0.9987213   -0.0020545    -0.0000078    0.0016021 
   0.001388263     0.0001655    0.0012219     1.0012150   -0.0021636     0.9986013   -0.0019836    -0.0000022    0.0016300 
   0.001396882     0.0001467    0.0012301     1.0012060   -0.0021938     0.9986778   -0.0021053    -0.0000156    0.0016023 
   0.001405555     0.0001839    0.0012339     1.0011270   -0.0021944     0.9987006   -0.0021157     0.0000004    0.0016071 
   0.001414282     0.0001550    0.0012426     1.0011970   -0.0021947     0.9986983   -0.0021624    -0.0000054    0.0016316 
   0.001423063     0.0001557    0.0012181     1.0012550   -0.0022672     0.9987271   -0.0020821     0.0000237    0.0016152 
   0.001431899     0.0001226    0.0012515     1.0013950   -0.0024856     0.9988239   -0.0020017     0.0000055    0.0016082 
   0.001440789     0.0001835    0.0012613     1.0012040   -0.0022207     0.9987047   -0.0022029     0.0000037    0.0016308 
   0.001449735     0.0001548    0.0012694     1.0011710   -0.0021361     0.9987456   -0.0021888    -0.0000117    0.0016351 
   0.001458736     0.0001381    0.0012849     1.0012370   -0.0023238     0.9987594   -0.0021292    -0.0000113    0.0016627 
   0.001467793     0.0001589    0.0013019     1.0011780   -0.0022250     0.9987052   -0.0022163     0.0000035    0.0016650 
   0.001476907     0.0001725    0.0013109     1.0011880   -0.0023785     0.9986877   -0.0022172    -0.0000004    0.0016710 
   0.001486077     0.0001766    0.0013235     1.0012520   -0.0022968     0.9987064   -0.0022336    -0.0000265    0.0016884 
   0.001495303     0.0001612    0.0013274     1.0012880   -0.0022985     0.9987375   -0.0022563    -0.0000063    0.0016748 
   0.001504588     0.0001594    0.0013403     1.0013250   -0.0022744     0.9986910   -0.0022213    -0.0000045    0.0016881 
   0.001513929     0.0001558    0.0013521     1.0012330   -0.0022299     0.9985601   -0.0022244    -0.0000255    0.0017022 
   0.001523329     0.0001652    0.0013832     1.0012630   -0.0023773     0.9986823   -0.0022762    -0.0000294    0.0017122 
   0.001532787     0.0001728    0.0013768     1.0012120   -0.0024084     0.9987019   -0.0022467    -0.0000027    0.0017407 
   0.001542304     0.0001566    0.0014162     1.0012360   -0.0024253     0.9987170   -0.0023523    -0.0000148    0.0017382 
   0.001551880     0.0001784    0.0014152     1.0012950   -0.0024235     0.9987220   -0.0023038    -0.0000283    0.0017311 
   0.001561516     0.0001522    0.0014006     1.0012300   -0.0023645     0.9986734   -0.0023104    -0.0000319    0.0017485 
   0.001571211     0.0001828    0.0014210     1.0012150   -0.0024422     0.9987583   -0.0023121    -0.0000277    0.0017453 
   0.001580966     0.0001823    0.0014381     1.0012800   -0.0024171     0.9987149   -0.0023344    -0.0000283    0.0017697 
   0.001590782     0.0001842    0.0014322     1.0013310   -0.0024513     0.9987152   -0.0023381     0.0000011    0.0017664 
   0.001600659     0.0001755    0.0014556     1.0013040   -0.0023445     0.9987107   -0.0024185    -0.0000093    0.0017787 
   0.001610598     0.0001521    0.0014842     1.0012460   -0.0025504     0.9987347   -0.0025207    -0.0000333    0.0017766 
   0.001620598     0.0001719    0.0014675     1.0012120   -0.0026082     0.9987440   -0.0023716    -0.0000217    0.0017901 
   0.001630660     0.0001841    0.0014930     1.0012790   -0.0025345     0.9986052   -0.0023842    -0.0000757    0.0017968 
   0.001640784     0.0001830    0.0015179     1.0013490   -0.0025292     0.9987046   -0.0024412    -0.0000477    0.0018435 
   0.001650972     0.0001614    0.0015076     1.0012860   -0.0026533     0.9987961   -0.0024348    -0.0000375    0.0018256 
   0.001661222     0.0001703    0.0015354     1.0013380   -0.0026383     0.9987403   -0.0024640    -0.0000502    0.0018620 
   0.001671537     0.0001730    0.0015366     1.0012640   -0.0025388     0.9987627   -0.0024406    -0.0000131    0.0018444 
   0.001681915     0.0001754    0.0015483     1.0012870   -0.0026048     0.9986909   -0.0024495    -0.0000294    0.0018739 
   0.001692358     0.0001965    0.0015745     1.0013230   -0.0025783     0.9987156   -0.0024484    -0.0000195    0.0018897 
   0.001702866     0.0001857    0.0015869     1.0013130   -0.0026459     0.9986923   -0.0024968    -0.0000281    0.0018894 
   0.001713438     0.0001689    0.0015954     1.0012460   -0.0026616     0.9986666   -0.0025092    -0.0000385    0.0018800 
   0.001724077     0.0001801    0.0016171     1.0012730   -0.0026369     0.9987065   -0.0025924    -0.0000144    0.0018939 
   0.001734782     0.0001782    0.0016226     1.0012890   -0.0026539     0.9986770   -0.0026102    -0.0000245    0.0019043 
   0.001745553     0.0001795    0.0016274     1.0011890   -0.0026432     0.9988174   -0.0025598    -0.0000274    0.0019090 
   0.001756391     0.0001775    0.0016496     1.0012710   -0.0027918     0.9987120   -0.0026509    -0.0000370    0.0019143 
   0.001767296     0.0001652    0.0016611     1.0012870   -0.0027042     0.9987605   -0.0027082    -0.0000520    0.0019186 
   0.001778269     0.0001780    0.0016734     1.0013340   -0.0027837     0.9986034   -0.0026892    -0.0000223    0.0019392 
   0.001789310     0.0001642    0.0016992     1.0011920   -0.0027946     0.9987319   -0.0026420    -0.0000232    0.0019611 
   0.001800419     0.0001973    0.0017125     1.0012510   -0.0027822     0.9988055   -0.0027127    -0.0000378    0.0019805 
   0.001811598     0.0001872    0.0017172     1.0012890   -0.0027928     0.9987309   -0.0027347    -0.0000276    0.0019830 
   0.001822846     0.0001832    0.0017306     1.0012370   -0.0028032     0.9987513   -0.0027805    -0.0000313    0.0019763 
   0.001834164     0.0001874    0.0017492     1.0012380   -0.0027786     0.9987286   -0.0027477    -0.0000301    0.0019997 
   0.001845552     0.0001874    0.0017318     1.0012510   -0.0028550     0.9987385   -0.0027888    -0.0000430    0.0020136 
   0.001857011     0.0001889    0.0017658     1.0013270   -0.0028941     0.9987676   -0.0028260    -0.0000385    0.0020135 
   0.001868541     0.0001957    0.0018007     1.0012960   -0.0028413     0.9987728   -0.0028197    -0.0000568    0.0020334 
   0.001880142     0.0001998    0.0017938     1.0012930   -0.0028918     0.9987825   -0.0028026    -0.0000506    0.0020591 
   0.001891816     0.0001876    0.0018024     1.0013250   -0.0029046     0.9986992   -0.0027951    -0.0000199    0.0020417 
   0.001903562     0.0001916    0.0018194     1.0013770   -0.0028901     0.9987308   -0.0028909    -0.0000182    0.0020609 
   0.001915381     0.0002094    0.0018289     1.0013380   -0.0029071     0.9989237   -0.0028560    -0.0000241    0.0020481 
   0.001927273     0.0001946    0.0018506     1.0013220   -0.0029906     0.9986971   -0.0029773    -0.0000420    0.0020838 
   0.001939239     0.0001992    0.0018498     1.0014180   -0.0029507     0.9988032   -0.0030094    -0.0000491    0.0020936 
   0.001951280     0.0001867    0.0018911     1.0012110   -0.0028998     0.9986843   -0.0028715    -0.0000150    0.0021167 
   0.001963395     0.0001827    0.0018781     1.0012810   -0.0030878     0.9988080   -0.0030020    -0.0000489    0.0021031 
   0.001975585     0.0002030    0.0019160     1.0012960   -0.0029743     0.9987889   -0.0028960    -0.0000219    0.0021240 
   0.001987852     0.0002033    0.0018968     1.0012920   -0.0030279     0.9986455   -0.0029257    -0.0000506    0.0021526 
   0.002000194     0.0001935    0.0019305     1.0013690   -0.0030224     0.9988357   -0.0030635    -0.0000562    0.0021586 
   0.002012613     0.0002011    0.0019491     1.0012800   -0.0030662     0.9987031   -0.0030023    -0.0000256    0.0021822 
   0.002025109     0.0002134    0.0019607     1.0013000   -0.0030838     0.9987110   -0.0030408    -0.0000390    0.0021911 
   0.002037683     0.0001992    0.0019757     1.0013060   -0.0030653     0.9987115   -0.0031237    -0.0000447    0.0021936 
   0.002050334     0.0002171    0.0019898     1.0012940   -0.0031449     0.9987414   -0.0030161    -0.0000239    0.0022334 
   0.002063065     0.0001925    0.0020192     1.0013120   -0.0031985     0.9988089   -0.0031342    -0.0000531    0.0022221 
   0.002075874     0.0002061    0.0020216     1.0013010   -0.0031778     0.9987021   -0.0031438    -0.0000676    0.0022168 
   0.002088763     0.0002160    0.0020427     1.0013350   -0.0031966     0.9987377   -0.0031429    -0.0000492    0.0022319 
   0.002101732     0.0001892    0.0020638     1.0012360   -0.0032422     0.9987486   -0.0030972    -0.0000449    0.0022811 
   0.002114781     0.0002031    0.0020829     1.0013750   -0.0031819     0.9987258   -0.0032162    -0.0000399    0.0022570 
   0.002127911     0.0001732    0.0020826     1.0012930   -0.0033436     0.9986979   -0.0031236    -0.0000601    0.0022940 
   0.002141123     0.0002206    0.0021230     1.0011460   -0.0031278     0.9986297   -0.0032325    -0.0000455    0.0023053 
   0.002154417     0.0002099    0.0021439     1.0011780   -0.0032345     0.9985496   -0.0031093    -0.0000446    0.0023424 
   0.002167794     0.0002029    0.0021523     1.0012230   -0.0033323     0.9986512   -0.0032044    -0.0000434    0.0023128 
   0.002181253     0.0002236    0.0021588     1.0013070   -0.0032801     0.9987220   -0.0032657    -0.0000368    0.0023451 
   0.002194796     0.0002100    0.0021513     1.0012790   -0.0033661     0.9985793   -0.0032419    -0.0000352    0.0023347 
   0.002208424     0.0002206    0.0021718     1.0013480   -0.0034066     0.9987741   -0.0033133    -0.0000303    0.0023673 
   0.002222136     0.0001879    0.0021917     1.0012820   -0.0033935     0.9987879   -0.0033287    -0.0000560    0.0023959 
   0.002235932     0.0002008    0.0021983     1.0013430   -0.0034100     0.9986946   -0.0034216    -0.0000489    0.0023718 
   0.002249815     0.0002054    0.0022256     1.0013560   -0.0034725     0.9987450   -0.0033574    -0.0000465    0.0023924 
   0.002263784     0.0002279    0.0022306     1.0013680   -0.0034852     0.9986853   -0.0034415    -0.0000440    0.0024199 
   0.002277839     0.0002195    0.0022751     1.0012710   -0.0034918     0.9985998   -0.0033116    -0.0000425    0.0024561 
   0.002291982     0.0002267    0.0022474     1.0013550   -0.0035503     0.9987437   -0.0033716    -0.0000425    0.0024254 
   0.002306213     0.0002100    0.0023042     1.0012830   -0.0034824     0.9987103   -0.0034953    -0.0000661    0.0024695 
   0.002320532     0.0002157    0.0022994     1.0013160   -0.0035208     0.9986848   -0.0034655    -0.0000396    0.0024733 
   0.002334940     0.0002093    0.0023153     1.0013360   -0.0035556     0.9986662   -0.0035613    -0.0000447    0.0024766 
   0.002349437     0.0002122    0.0023316     1.0013320   -0.0035988     0.9986517   -0.0034765    -0.0000356    0.0024914 
   0.002364025     0.0002223    0.0023498     1.0013360   -0.0036895     0.9987109   -0.0034895    -0.0000299    0.0025031 
   0.002378702     0.0002246    0.0023729     1.0013450   -0.0036840     0.9986216   -0.0034595    -0.0000199    0.0025321 
   0.002393472     0.0002138    0.0023985     1.0013870   -0.0036309     0.9986731   -0.0035113    -0.0000369    0.0025555 
   0.002408332     0.0002041    0.0023973     1.0013590   -0.0037799     0.9987268   -0.0036231    -0.0000422    0.0025488 
   0.002423285     0.0002070    0.0024145     1.0012710   -0.0036368     0.9985684   -0.0036374    -0.0000501    0.0026126 
   0.002438331     0.0002227    0.0024261     1.0012820   -0.0036256     0.9987419   -0.0036519    -0.0000390    0.0025766 
   0.002453471     0.0002214    0.0024283     1.0014080   -0.0036836     0.9987813   -0.0037725    -0.0000229    0.0026165 
   0.002468704     0.0002092    0.0024663     1.0013340   -0.0037980     0.9986838   -0.0037186    -0.0000346    0.0026113 
   0.002484032     0.0002042    0.0024804     1.0012700   -0.0038330     0.9987504   -0.0037714    -0.0000612    0.0026268 
   0.002499455     0.0002146    0.0025122     1.0014190   -0.0038147     0.9986482   -0.0036962    -0.0000338    0.0026530 
   0.002514974     0.0002296    0.0025282     1.0013850   -0.0038720     0.9986708   -0.0037696    -0.0000489    0.0026455 
   0.002530589     0.0002318    0.0025467     1.0014080   -0.0038585     0.9986955   -0.0038292    -0.0000209    0.0026728 
   0.002546301     0.0002251    0.0025609     1.0013720   -0.0039211     0.9987367   -0.0038112    -0.0000556    0.0026846 
   0.002562110     0.0002177    0.0025897     1.0013250   -0.0038908     0.9987015   -0.0038340    -0.0000455    0.0026968 
   0.002578018     0.0002015    0.0026074     1.0013490   -0.0039285     0.9986736   -0.0038535    -0.0000325    0.0027333 
   0.002594025     0.0002171    0.0026039     1.0014340   -0.0039750     0.9986733   -0.0038155    -0.0000369    0.0027325 
   0.002610131     0.0002316    0.0026216     1.0014010   -0.0039395     0.9986928   -0.0038964    -0.0000312    0.0027440 
   0.002626337     0.0002169    0.0026486     1.0013370   -0.0040378     0.9987268   -0.0039776    -0.0000375    0.0027672 
   0.002642643     0.0002125    0.0026673     1.0013480   -0.0039496     0.9986731   -0.0039688    -0.0000446    0.0027778 
