# HZ S RI R 50
1.00000000000e+008 -9.08823059110e-001 -2.44974961040e-002 +9.01430012094e-002 -2.48088070805e-002 +9.01430012094e-002 -2.48088070805e-002 -9.08823059110e-001 -2.44974961040e-002
1.02900000000e+008 -9.10174340166e-001 -2.45034667974e-002 +8.87768170573e-002 -2.48237590064e-002 +8.87768170573e-002 -2.48237590064e-002 -9.10174340166e-001 -2.45034667974e-002
1.05800000000e+008 -9.11475078960e-001 -2.45067669158e-002 +8.74613827109e-002 -2.48360378692e-002 +8.74613827109e-002 -2.48360378692e-002 -9.11475078960e-001 -2.45067669158e-002
1.08700000000e+008 -9.12728445732e-001 -2.45075756317e-002 +8.61935193989e-002 -2.48458228508e-002 +8.61935193989e-002 -2.48458228508e-002 -9.12728445732e-001 -2.45075756317e-002
1.11600000000e+008 -9.13937334394e-001 -2.45060567848e-002 +8.49703252449e-002 -2.48532778002e-002 +8.49703252449e-002 -2.48532778002e-002 -9.13937334394e-001 -2.45060567848e-002
1.14500000000e+008 -9.15104392987e-001 -2.45023605346e-002 +8.37891447517e-002 -2.48585528858e-002 +8.37891447517e-002 -2.48585528858e-002 -9.15104392987e-001 -2.45023605346e-002
1.17400000000e+008 -9.16232050130e-001 -2.44966247988e-002 +8.26475423173e-002 -2.48617860342e-002 +8.26475423173e-002 -2.48617860342e-002 -9.16232050130e-001 -2.44966247988e-002
1.20300000000e+008 -9.17322538039e-001 -2.44889765099e-002 +8.15432791654e-002 -2.48631041869e-002 +8.15432791654e-002 -2.48631041869e-002 -9.17322538039e-001 -2.44889765099e-002
1.23200000000e+008 -9.18377912664e-001 -2.44795327172e-002 +8.04742931814e-002 -2.48626244018e-002 +8.04742931814e-002 -2.48626244018e-002 -9.18377912664e-001 -2.44795327172e-002
1.26100000000e+008 -9.19400071334e-001 -2.44684015545e-002 +7.94386812290e-002 -2.48604548215e-002 +7.94386812290e-002 -2.48604548215e-002 -9.19400071334e-001 -2.44684015545e-002
1.29000000000e+008 -9.20390768288e-001 -2.44556830951e-002 +7.84346835934e-002 -2.48566955278e-002 +7.84346835934e-002 -2.48566955278e-002 -9.20390768288e-001 -2.44556830951e-002
1.31900000000e+008 -9.21351628375e-001 -2.44414701073e-002 +7.74606702552e-002 -2.48514392975e-002 +7.74606702552e-002 -2.48514392975e-002 -9.21351628375e-001 -2.44414701073e-002
1.34800000000e+008 -9.22284159178e-001 -2.44258487244e-002 +7.65151287434e-002 -2.48447722723e-002 +7.65151287434e-002 -2.48447722723e-002 -9.22284159178e-001 -2.44258487244e-002
1.37700000000e+008 -9.23189761768e-001 -2.44088990413e-002 +7.55966533588e-002 -2.48367745553e-002 +7.55966533588e-002 -2.48367745553e-002 -9.23189761768e-001 -2.44088990413e-002
1.40600000000e+008 -9.24069740274e-001 -2.43906956455e-002 +7.47039355854e-002 -2.48275207425e-002 +7.47039355854e-002 -2.48275207425e-002 -9.24069740274e-001 -2.43906956455e-002
1.43500000000e+008 -9.24925310416e-001 -2.43713080932e-002 +7.38357555399e-002 -2.48170803981e-002 +7.38357555399e-002 -2.48170803981e-002 -9.24925310416e-001 -2.43713080932e-002
1.46400000000e+008 -9.25757607137e-001 -2.43508013338e-002 +7.29909743275e-002 -2.48055184799e-002 +7.29909743275e-002 -2.48055184799e-002 -9.25757607137e-001 -2.43508013338e-002
1.49300000000e+008 -9.26567691431e-001 -2.43292360933e-002 +7.21685271922e-002 -2.47928957215e-002 +7.21685271922e-002 -2.47928957215e-002 -9.26567691431e-001 -2.43292360933e-002
1.52200000000e+008 -9.27356556489e-001 -2.43066692173e-002 +7.13674173659e-002 -2.47792689769e-002 +7.13674173659e-002 -2.47792689769e-002 -9.27356556489e-001 -2.43066692173e-002
1.55100000000e+008 -9.28125133215e-001 -2.42831539818e-002 +7.05867105331e-002 -2.47646915299e-002 +7.05867105331e-002 -2.47646915299e-002 -9.28125133215e-001 -2.42831539818e-002
1.58000000000e+008 -9.28874295212e-001 -2.42587403732e-002 +6.98255298397e-002 -2.47492133748e-002 +6.98255298397e-002 -2.47492133748e-002 -9.28874295212e-001 -2.42587403732e-002
1.60900000000e+008 -9.29604863277e-001 -2.42334753418e-002 +6.90830513830e-002 -2.47328814697e-002 +6.90830513830e-002 -2.47328814697e-002 -9.29604863277e-001 -2.42334753418e-002
1.63800000000e+008 -9.30317609480e-001 -2.42074030321e-002 +6.83585001296e-002 -2.47157399669e-002 +6.83585001296e-002 -2.47157399669e-002 -9.30317609480e-001 -2.42074030321e-002
1.66700000000e+008 -9.31013260850e-001 -2.41805649917e-002 +6.76511462131e-002 -2.46978304217e-002 +6.76511462131e-002 -2.46978304217e-002 -9.31013260850e-001 -2.41805649917e-002
1.69600000000e+008 -9.31692502737e-001 -2.41530003615e-002 +6.69603015712e-002 -2.46791919826e-002 +6.69603015712e-002 -2.46791919826e-002 -9.31692502737e-001 -2.41530003615e-002
1.72500000000e+008 -9.32355981860e-001 -2.41247460490e-002 +6.62853168854e-002 -2.46598615649e-002 +6.62853168854e-002 -2.46598615649e-002 -9.32355981860e-001 -2.41247460490e-002
1.75400000000e+008 -9.33004309094e-001 -2.40958368866e-002 +6.56255787909e-002 -2.46398740084e-002 +6.56255787909e-002 -2.46398740084e-002 -9.33004309094e-001 -2.40958368866e-002
1.78300000000e+008 -9.33638062007e-001 -2.40663057764e-002 +6.49805073312e-002 -2.46192622229e-002 +6.49805073312e-002 -2.46192622229e-002 -9.33638062007e-001 -2.40663057764e-002
1.81200000000e+008 -9.34257787184e-001 -2.40361838228e-002 +6.43495536287e-002 -2.45980573203e-002 +6.43495536287e-002 -2.45980573203e-002 -9.34257787184e-001 -2.40361838228e-002
1.84100000000e+008 -9.34864002354e-001 -2.40055004538e-002 +6.37321977537e-002 -2.45762887359e-002 +6.37321977537e-002 -2.45762887359e-002 -9.34864002354e-001 -2.40055004538e-002
1.87000000000e+008 -9.35457198337e-001 -2.39742835330e-002 +6.31279467692e-002 -2.45539843407e-002 +6.31279467692e-002 -2.45539843407e-002 -9.35457198337e-001 -2.39742835330e-002
1.89900000000e+008 -9.36037840838e-001 -2.39425594618e-002 +6.25363329362e-002 -2.45311705436e-002 +6.25363329362e-002 -2.45311705436e-002 -9.36037840838e-001 -2.39425594618e-002
1.92800000000e+008 -9.36606372091e-001 -2.39103532742e-002 +6.19569120630e-002 -2.45078723859e-002 +6.19569120630e-002 -2.45078723859e-002 -9.36606372091e-001 -2.39103532742e-002
1.95700000000e+008 -9.37163212375e-001 -2.38776887240e-002 +6.13892619863e-002 -2.44841136288e-002 +6.13892619863e-002 -2.44841136288e-002 -9.37163212375e-001 -2.38776887240e-002
1.98600000000e+008 -9.37708761410e-001 -2.38445883650e-002 +6.08329811703e-002 -2.44599168331e-002 +6.08329811703e-002 -2.44599168331e-002 -9.37708761410e-001 -2.38445883650e-002
2.01500000000e+008 -9.38243399646e-001 -2.38110736256e-002 +6.02876874144e-002 -2.44353034346e-002 +6.02876874144e-002 -2.44353034346e-002 -9.38243399646e-001 -2.38110736256e-002
2.04400000000e+008 -9.38767489455e-001 -2.37771648772e-002 +5.97530166587e-002 -2.44102938118e-002 +5.97530166587e-002 -2.44102938118e-002 -9.38767489455e-001 -2.37771648772e-002
2.07300000000e+008 -9.39281376233e-001 -2.37428814984e-002 +5.92286218791e-002 -2.43849073504e-002 +5.92286218791e-002 -2.43849073504e-002 -9.39281376233e-001 -2.37428814984e-002
2.10200000000e+008 -9.39785389418e-001 -2.37082419335e-002 +5.87141720641e-002 -2.43591625021e-002 +5.87141720641e-002 -2.43591625021e-002 -9.39785389418e-001 -2.37082419335e-002
2.13100000000e+008 -9.40279843440e-001 -2.36732637478e-002 +5.82093512664e-002 -2.43330768390e-002 +5.82093512664e-002 -2.43330768390e-002 -9.40279843440e-001 -2.36732637478e-002
2.16000000000e+008 -9.40765038595e-001 -2.36379636786e-002 +5.77138577222e-002 -2.43066671055e-002 +5.77138577222e-002 -2.43066671055e-002 -9.40765038595e-001 -2.36379636786e-002
2.18900000000e+008 -9.41241261861e-001 -2.36023576819e-002 +5.72274030331e-002 -2.42799492647e-002 +5.72274030331e-002 -2.42799492647e-002 -9.41241261861e-001 -2.36023576819e-002
2.21800000000e+008 -9.41708787660e-001 -2.35664609775e-002 +5.67497114060e-002 -2.42529385433e-002 +5.67497114060e-002 -2.42529385433e-002 -9.41708787660e-001 -2.35664609775e-002
2.24700000000e+008 -9.42167878560e-001 -2.35302880892e-002 +5.62805189446e-002 -2.42256494723e-002 +5.62805189446e-002 -2.42256494723e-002 -9.42167878560e-001 -2.35302880892e-002
2.27600000000e+008 -9.42618785933e-001 -2.34938528840e-002 +5.58195729897e-002 -2.41980959252e-002 +5.58195729897e-002 -2.41980959252e-002 -9.42618785933e-001 -2.34938528840e-002
2.30500000000e+008 -9.43061750572e-001 -2.34571686070e-002 +5.53666315039e-002 -2.41702911543e-002 +5.53666315039e-002 -2.41702911543e-002 -9.43061750572e-001 -2.34571686070e-002
2.33400000000e+008 -9.43497003260e-001 -2.34202479158e-002 +5.49214624974e-002 -2.41422478241e-002 +5.49214624974e-002 -2.41422478241e-002 -9.43497003260e-001 -2.34202479158e-002
2.36300000000e+008 -9.43924765307e-001 -2.33831029110e-002 +5.44838434912e-002 -2.41139780419e-002 +5.44838434912e-002 -2.41139780419e-002 -9.43924765307e-001 -2.33831029110e-002
2.39200000000e+008 -9.44345249046e-001 -2.33457451661e-002 +5.40535610157e-002 -2.40854933880e-002 +5.40535610157e-002 -2.40854933880e-002 -9.44345249046e-001 -2.33457451661e-002
2.42100000000e+008 -9.44758658310e-001 -2.33081857544e-002 +5.36304101405e-002 -2.40568049427e-002 +5.36304101405e-002 -2.40568049427e-002 -9.44758658310e-001 -2.33081857544e-002
2.45000000000e+008 -9.45165188858e-001 -2.32704352752e-002 +5.32141940353e-002 -2.40279233118e-002 +5.32141940353e-002 -2.40279233118e-002 -9.45165188858e-001 -2.32704352752e-002
2.47900000000e+008 -9.45565028799e-001 -2.32325038775e-002 +5.28047235574e-002 -2.39988586512e-002 +5.28047235574e-002 -2.39988586512e-002 -9.45565028799e-001 -2.32325038775e-002
2.50800000000e+008 -9.45958358967e-001 -2.31944012830e-002 +5.24018168648e-002 -2.39696206893e-002 +5.24018168648e-002 -2.39696206893e-002 -9.45958358967e-001 -2.31944012830e-002
2.53700000000e+008 -9.46345353288e-001 -2.31561368073e-002 +5.20052990534e-002 -2.39402187483e-002 +5.20052990534e-002 -2.39402187483e-002 -9.46345353288e-001 -2.31561368073e-002
2.56600000000e+008 -9.46726179119e-001 -2.31177193797e-002 +5.16150018159e-002 -2.39106617643e-002 +5.16150018159e-002 -2.39106617643e-002 -9.46726179119e-001 -2.31177193797e-002
2.59500000000e+008 -9.47100997566e-001 -2.30791575624e-002 +5.12307631213e-002 -2.38809583060e-002 +5.12307631213e-002 -2.38809583060e-002 -9.47100997566e-001 -2.30791575624e-002
2.62400000000e+008 -9.47469963788e-001 -2.30404595679e-002 +5.08524269128e-002 -2.38511165925e-002 +5.08524269128e-002 -2.38511165925e-002 -9.47469963788e-001 -2.30404595679e-002
2.65300000000e+008 -9.47833227277e-001 -2.30016332758e-002 +5.04798428243e-002 -2.38211445101e-002 +5.04798428243e-002 -2.38211445101e-002 -9.47833227277e-001 -2.30016332758e-002
2.68200000000e+008 -9.48190932125e-001 -2.29626862487e-002 +5.01128659126e-002 -2.37910496279e-002 +5.01128659126e-002 -2.37910496279e-002 -9.48190932125e-001 -2.29626862487e-002
2.71100000000e+008 -9.48543217277e-001 -2.29236257469e-002 +4.97513564051e-002 -2.37608392128e-002 +4.97513564051e-002 -2.37608392128e-002 -9.48543217277e-001 -2.29236257469e-002
2.74000000000e+008 -9.48890216766e-001 -2.28844587426e-002 +4.93951794620e-002 -2.37305202434e-002 +4.93951794620e-002 -2.37305202434e-002 -9.48890216766e-001 -2.28844587426e-002
2.76900000000e+008 -9.49232059939e-001 -2.28451919327e-002 +4.90442049516e-002 -2.37000994233e-002 +4.90442049516e-002 -2.37000994233e-002 -9.49232059939e-001 -2.28451919327e-002
2.79800000000e+008 -9.49568871667e-001 -2.28058317520e-002 +4.86983072383e-002 -2.36695831935e-002 +4.86983072383e-002 -2.36695831935e-002 -9.49568871667e-001 -2.28058317520e-002
2.82700000000e+008 -9.49900772544e-001 -2.27663843845e-002 +4.83573649822e-002 -2.36389777447e-002 +4.83573649822e-002 -2.36389777447e-002 -9.49900772544e-001 -2.27663843845e-002
2.85600000000e+008 -9.50227879077e-001 -2.27268557749e-002 +4.80212609490e-002 -2.36082890278e-002 +4.80212609490e-002 -2.36082890278e-002 -9.50227879077e-001 -2.27268557749e-002
2.88500000000e+008 -9.50550303866e-001 -2.26872516389e-002 +4.76898818315e-002 -2.35775227651e-002 +4.76898818315e-002 -2.35775227651e-002 -9.50550303866e-001 -2.26872516389e-002
2.91400000000e+008 -9.50868155769e-001 -2.26475774737e-002 +4.73631180789e-002 -2.35466844601e-002 +4.73631180789e-002 -2.35466844601e-002 -9.50868155769e-001 -2.26475774737e-002
2.94300000000e+008 -9.51181540068e-001 -2.26078385671e-002 +4.70408637365e-002 -2.35157794069e-002 +4.70408637365e-002 -2.35157794069e-002 -9.51181540068e-001 -2.26078385671e-002
2.97200000000e+008 -9.51490558616e-001 -2.25680400067e-002 +4.67230162931e-002 -2.34848126996e-002 +4.67230162931e-002 -2.34848126996e-002 -9.51490558616e-001 -2.25680400067e-002
3.00100000000e+008 -9.51795309983e-001 -2.25281866885e-002 +4.64094765364e-002 -2.34537892405e-002 +4.64094765364e-002 -2.34537892405e-002 -9.51795309983e-001 -2.25281866885e-002
3.03000000000e+008 -9.52095889593e-001 -2.24882833251e-002 +4.61001484158e-002 -2.34227137483e-002 +4.61001484158e-002 -2.34227137483e-002 -9.52095889593e-001 -2.24882833251e-002
3.05900000000e+008 -9.52392389853e-001 -2.24483344531e-002 +4.57949389125e-002 -2.33915907662e-002 +4.57949389125e-002 -2.33915907662e-002 -9.52392389853e-001 -2.24483344531e-002
3.08800000000e+008 -9.52684900276e-001 -2.24083444408e-002 +4.54937579154e-002 -2.33604246684e-002 +4.54937579154e-002 -2.33604246684e-002 -9.52684900276e-001 -2.24083444408e-002
3.11700000000e+008 -9.52973507598e-001 -2.23683174950e-002 +4.51965181038e-002 -2.33292196682e-002 +4.51965181038e-002 -2.33292196682e-002 -9.52973507598e-001 -2.23683174950e-002
3.14600000000e+008 -9.53258295891e-001 -2.23282576676e-002 +4.49031348359e-002 -2.32979798237e-002 +4.49031348359e-002 -2.32979798237e-002 -9.53258295891e-001 -2.23282576676e-002
3.17500000000e+008 -9.53539346665e-001 -2.22881688620e-002 +4.46135260422e-002 -2.32667090444e-002 +4.46135260422e-002 -2.32667090444e-002 -9.53539346665e-001 -2.22881688620e-002
3.20400000000e+008 -9.53816738975e-001 -2.22480548391e-002 +4.43276121248e-002 -2.32354110975e-002 +4.43276121248e-002 -2.32354110975e-002 -9.53816738975e-001 -2.22480548391e-002
3.23300000000e+008 -9.54090549509e-001 -2.22079192229e-002 +4.40453158607e-002 -2.32040896131e-002 +4.40453158607e-002 -2.32040896131e-002 -9.54090549509e-001 -2.22079192229e-002
3.26200000000e+008 -9.54360852685e-001 -2.21677655061e-002 +4.37665623106e-002 -2.31727480901e-002 +4.37665623106e-002 -2.31727480901e-002 -9.54360852685e-001 -2.21677655061e-002
3.29100000000e+008 -9.54627720736e-001 -2.21275970554e-002 +4.34912787313e-002 -2.31413899011e-002 +4.34912787313e-002 -2.31413899011e-002 -9.54627720736e-001 -2.21275970554e-002
3.32000000000e+008 -9.54891223793e-001 -2.20874171159e-002 +4.32193944926e-002 -2.31100182976e-002 +4.32193944926e-002 -2.31100182976e-002 -9.54891223793e-001 -2.20874171159e-002
3.34900000000e+008 -9.55151429965e-001 -2.20472288165e-002 +4.29508409976e-002 -2.30786364146e-002 +4.29508409976e-002 -2.30786364146e-002 -9.55151429965e-001 -2.20472288165e-002
3.37800000000e+008 -9.55408405412e-001 -2.20070351740e-002 +4.26855516073e-002 -2.30472472748e-002 +4.26855516073e-002 -2.30472472748e-002 -9.55408405412e-001 -2.20070351740e-002
3.40700000000e+008 -9.55662214420e-001 -2.19668390976e-002 +4.24234615683e-002 -2.30158537934e-002 +4.24234615683e-002 -2.30158537934e-002 -9.55662214420e-001 -2.19668390976e-002
3.43600000000e+008 -9.55912919467e-001 -2.19266433929e-002 +4.21645079433e-002 -2.29844587822e-002 +4.21645079433e-002 -2.29844587822e-002 -9.55912919467e-001 -2.19266433929e-002
3.46500000000e+008 -9.56160581291e-001 -2.18864507657e-002 +4.19086295457e-002 -2.29530649529e-002 +4.19086295457e-002 -2.29530649529e-002 -9.56160581291e-001 -2.18864507657e-002
3.49400000000e+008 -9.56405258952e-001 -2.18462638260e-002 +4.16557668763e-002 -2.29216749217e-002 +4.16557668763e-002 -2.29216749217e-002 -9.56405258952e-001 -2.18462638260e-002
3.52300000000e+008 -9.56647009890e-001 -2.18060850916e-002 +4.14058620631e-002 -2.28902912121e-002 +4.14058620631e-002 -2.28902912121e-002 -9.56647009890e-001 -2.18060850916e-002
3.55200000000e+008 -9.56885889987e-001 -2.17659169911e-002 +4.11588588039e-002 -2.28589162590e-002 +4.11588588039e-002 -2.28589162590e-002 -9.56885889987e-001 -2.17659169911e-002
3.58100000000e+008 -9.57121953615e-001 -2.17257618679e-002 +4.09147023107e-002 -2.28275524114e-002 +4.09147023107e-002 -2.28275524114e-002 -9.57121953615e-001 -2.17257618679e-002
3.61000000000e+008 -9.57355253696e-001 -2.16856219826e-002 +4.06733392574e-002 -2.27962019361e-002 +4.06733392574e-002 -2.27962019361e-002 -9.57355253696e-001 -2.16856219826e-002
3.63900000000e+008 -9.57585841747e-001 -2.16454995164e-002 +4.04347177291e-002 -2.27648670201e-002 +4.04347177291e-002 -2.27648670201e-002 -9.57585841747e-001 -2.16454995164e-002
3.66800000000e+008 -9.57813767930e-001 -2.16053965741e-002 +4.01987871739e-002 -2.27335497740e-002 +4.01987871739e-002 -2.27335497740e-002 -9.57813767930e-001 -2.16053965741e-002
3.69700000000e+008 -9.58039081097e-001 -2.15653151864e-002 +3.99654983563e-002 -2.27022522345e-002 +3.99654983563e-002 -2.27022522345e-002 -9.58039081097e-001 -2.15653151864e-002
3.72600000000e+008 -9.58261828838e-001 -2.15252573129e-002 +3.97348033131e-002 -2.26709763671e-002 +3.97348033131e-002 -2.26709763671e-002 -9.58261828838e-001 -2.15252573129e-002
3.75500000000e+008 -9.58482057517e-001 -2.14852248447e-002 +3.95066553103e-002 -2.26397240687e-002 +3.95066553103e-002 -2.26397240687e-002 -9.58482057517e-001 -2.14852248447e-002
3.78400000000e+008 -9.58699812319e-001 -2.14452196065e-002 +3.92810088031e-002 -2.26084971698e-002 +3.92810088031e-002 -2.26084971698e-002 -9.58699812319e-001 -2.14452196065e-002
3.81300000000e+008 -9.58915137286e-001 -2.14052433592e-002 +3.90578193960e-002 -2.25772974371e-002 +3.90578193960e-002 -2.25772974371e-002 -9.58915137286e-001 -2.14052433592e-002
3.84200000000e+008 -9.59128075352e-001 -2.13652978018e-002 +3.88370438055e-002 -2.25461265755e-002 +3.88370438055e-002 -2.25461265755e-002 -9.59128075352e-001 -2.13652978018e-002
3.87100000000e+008 -9.59338668384e-001 -2.13253845742e-002 +3.86186398240e-002 -2.25149862306e-002 +3.86186398240e-002 -2.25149862306e-002 -9.59338668384e-001 -2.13253845742e-002
3.90000000000e+008 -9.59546957213e-001 -2.12855052584e-002 +3.84025662852e-002 -2.24838779902e-002 +3.84025662852e-002 -2.24838779902e-002 -9.59546957213e-001 -2.12855052584e-002
3.92900000000e+008 -9.59752981668e-001 -2.12456613812e-002 +3.81887830307e-002 -2.24528033868e-002 +3.81887830307e-002 -2.24528033868e-002 -9.59752981668e-001 -2.12456613812e-002
3.95800000000e+008 -9.59956780609e-001 -2.12058544157e-002 +3.79772508781e-002 -2.24217638993e-002 +3.79772508781e-002 -2.24217638993e-002 -9.59956780609e-001 -2.12058544157e-002
3.98700000000e+008 -9.60158391956e-001 -2.11660857833e-002 +3.77679315902e-002 -2.23907609547e-002 +3.77679315902e-002 -2.23907609547e-002 -9.60158391956e-001 -2.11660857833e-002
4.01600000000e+008 -9.60357852718e-001 -2.11263568553e-002 +3.75607878455e-002 -2.23597959301e-002 +3.75607878455e-002 -2.23597959301e-002 -9.60357852718e-001 -2.11263568553e-002
4.04500000000e+008 -9.60555199022e-001 -2.10866689546e-002 +3.73557832098e-002 -2.23288701542e-002 +3.73557832098e-002 -2.23288701542e-002 -9.60555199022e-001 -2.10866689546e-002
4.07400000000e+008 -9.60750466142e-001 -2.10470233577e-002 +3.71528821089e-002 -2.22979849090e-002 +3.71528821089e-002 -2.22979849090e-002 -9.60750466142e-001 -2.10470233577e-002
4.10300000000e+008 -9.60943688524e-001 -2.10074212957e-002 +3.69520498021e-002 -2.22671414312e-002 +3.69520498021e-002 -2.22671414312e-002 -9.60943688524e-001 -2.10074212957e-002
4.13200000000e+008 -9.61134899808e-001 -2.09678639561e-002 +3.67532523571e-002 -2.22363409141e-002 +3.67532523571e-002 -2.22363409141e-002 -9.61134899808e-001 -2.09678639561e-002
4.16100000000e+008 -9.61324132857e-001 -2.09283524842e-002 +3.65564566255e-002 -2.22055845085e-002 +3.65564566255e-002 -2.22055845085e-002 -9.61324132857e-001 -2.09283524842e-002
4.19000000000e+008 -9.61511419778e-001 -2.08888879845e-002 +3.63616302193e-002 -2.21748733246e-002 +3.63616302193e-002 -2.21748733246e-002 -9.61511419778e-001 -2.08888879845e-002
