# HZ S RI R 50
1.00000000000e+008 -9.36925604009e-001 -1.71996258090e-002 +6.15261040594e-002 -1.76636447182e-002 +6.15261040594e-002 -1.76636447182e-002 -9.36925604009e-001 -1.71996258090e-002
1.02900000000e+008 -9.37875047923e-001 -1.71828184449e-002 +6.05543887527e-002 -1.76601424407e-002 +6.05543887527e-002 -1.76601424407e-002 -9.37875047923e-001 -1.71828184449e-002
1.05800000000e+008 -9.38787917545e-001 -1.71647413977e-002 +5.96195582924e-002 -1.76553623863e-002 +5.96195582924e-002 -1.76553623863e-002 -9.38787917545e-001 -1.71647413977e-002
1.08700000000e+008 -9.39666549068e-001 -1.71454864836e-002 +5.87192636286e-002 -1.76493964000e-002 +5.87192636286e-002 -1.76493964000e-002 -9.39666549068e-001 -1.71454864836e-002
1.11600000000e+008 -9.40513072192e-001 -1.71251374437e-002 +5.78513630524e-002 -1.76423282519e-002 +5.78513630524e-002 -1.76423282519e-002 -9.40513072192e-001 -1.71251374437e-002
1.14500000000e+008 -9.41329433155e-001 -1.71037708317e-002 +5.70138990885e-002 -1.76342345239e-002 +5.70138990885e-002 -1.76342345239e-002 -9.41329433155e-001 -1.71037708317e-002
1.17400000000e+008 -9.42117414689e-001 -1.70814567844e-002 +5.62050784704e-002 -1.76251853811e-002 +5.62050784704e-002 -1.76251853811e-002 -9.42117414689e-001 -1.70814567844e-002
1.20300000000e+008 -9.42878653377e-001 -1.70582596935e-002 +5.54232547229e-002 -1.76152452429e-002 +5.54232547229e-002 -1.76152452429e-002 -9.42878653377e-001 -1.70582596935e-002
1.23200000000e+008 -9.43614654804e-001 -1.70342387923e-002 +5.46669129595e-002 -1.76044733702e-002 +5.46669129595e-002 -1.76044733702e-002 -9.43614654804e-001 -1.70342387923e-002
1.26100000000e+008 -9.44326806821e-001 -1.70094486715e-002 +5.39346565673e-002 -1.75929243810e-002 +5.39346565673e-002 -1.75929243810e-002 -9.44326806821e-001 -1.70094486715e-002
1.29000000000e+008 -9.45016391202e-001 -1.69839397325e-002 +5.32251955090e-002 -1.75806487035e-002 +5.32251955090e-002 -1.75806487035e-002 -9.45016391202e-001 -1.69839397325e-002
1.31900000000e+008 -9.45684593911e-001 -1.69577585874e-002 +5.25373360144e-002 -1.75676929766e-002 +5.25373360144e-002 -1.75676929766e-002 -9.45684593911e-001 -1.69577585874e-002
1.34800000000e+008 -9.46332514181e-001 -1.69309484139e-002 +5.18699714691e-002 -1.75541004044e-002 +5.18699714691e-002 -1.75541004044e-002 -9.46332514181e-001 -1.69309484139e-002
1.37700000000e+008 -9.46961172557e-001 -1.69035492693e-002 +5.12220743394e-002 -1.75399110705e-002 +5.12220743394e-002 -1.75399110705e-002 -9.46961172557e-001 -1.69035492693e-002
1.40600000000e+008 -9.47571518039e-001 -1.68755983708e-002 +5.05926889976e-002 -1.75251622180e-002 +5.05926889976e-002 -1.75251622180e-002 -9.47571518039e-001 -1.68755983708e-002
1.43500000000e+008 -9.48164434452e-001 -1.68471303450e-002 +4.99809253294e-002 -1.75098884995e-002 +4.99809253294e-002 -1.75098884995e-002 -9.48164434452e-001 -1.68471303450e-002
1.46400000000e+008 -9.48740746131e-001 -1.68181774515e-002 +4.93859530259e-002 -1.74941222000e-002 +4.93859530259e-002 -1.74941222000e-002 -9.48740746131e-001 -1.68181774515e-002
1.49300000000e+008 -9.49301223005e-001 -1.67887697831e-002 +4.88069964742e-002 -1.74778934375e-002 +4.88069964742e-002 -1.74778934375e-002 -9.49301223005e-001 -1.67887697831e-002
1.52200000000e+008 -9.49846585162e-001 -1.67589354452e-002 +4.82433301733e-002 -1.74612303427e-002 +4.82433301733e-002 -1.74612303427e-002 -9.49846585162e-001 -1.67589354452e-002
1.55100000000e+008 -9.50377506956e-001 -1.67287007183e-002 +4.76942746137e-002 -1.74441592210e-002 +4.76942746137e-002 -1.74441592210e-002 -9.50377506956e-001 -1.67287007183e-002
1.58000000000e+008 -9.50894620698e-001 -1.66980902035e-002 +4.71591925648e-002 -1.74267046983e-002 +4.71591925648e-002 -1.74267046983e-002 -9.50894620698e-001 -1.66980902035e-002
1.60900000000e+008 -9.51398519993e-001 -1.66671269551e-002 +4.66374857239e-002 -1.74088898532e-002 +4.66374857239e-002 -1.74088898532e-002 -9.51398519993e-001 -1.66671269551e-002
1.63800000000e+008 -9.51889762758e-001 -1.66358325993e-002 +4.61285916858e-002 -1.73907363365e-002 +4.61285916858e-002 -1.73907363365e-002 -9.51889762758e-001 -1.66358325993e-002
1.66700000000e+008 -9.52368873954e-001 -1.66042274433e-002 +4.56319811963e-002 -1.73722644795e-002 +4.56319811963e-002 -1.73722644795e-002 -9.52368873954e-001 -1.66042274433e-002
1.69600000000e+008 -9.52836348068e-001 -1.65723305735e-002 +4.51471556604e-002 -1.73534933926e-002 +4.51471556604e-002 -1.73534933926e-002 -9.52836348068e-001 -1.65723305735e-002
1.72500000000e+008 -9.53292651367e-001 -1.65401599451e-002 +4.46736448762e-002 -1.73344410548e-002 +4.46736448762e-002 -1.73344410548e-002 -9.53292651367e-001 -1.65401599451e-002
1.75400000000e+008 -9.53738223949e-001 -1.65077324642e-002 +4.42110049705e-002 -1.73151243958e-002 +4.42110049705e-002 -1.73151243958e-002 -9.53738223949e-001 -1.65077324642e-002
1.78300000000e+008 -9.54173481622e-001 -1.64750640620e-002 +4.37588165171e-002 -1.72955593703e-002 +4.37588165171e-002 -1.72955593703e-002 -9.54173481622e-001 -1.64750640620e-002
1.81200000000e+008 -9.54598817610e-001 -1.64421697631e-002 +4.33166828162e-002 -1.72757610263e-002 +4.33166828162e-002 -1.72757610263e-002 -9.54598817610e-001 -1.64421697631e-002
1.84100000000e+008 -9.55014604123e-001 -1.64090637486e-002 +4.28842283215e-002 -1.72557435679e-002 +4.28842283215e-002 -1.72557435679e-002 -9.55014604123e-001 -1.64090637486e-002
1.87000000000e+008 -9.55421193787e-001 -1.63757594125e-002 +4.24610971980e-002 -1.72355204122e-002 +4.24610971980e-002 -1.72355204122e-002 -9.55421193787e-001 -1.63757594125e-002
1.89900000000e+008 -9.55818920961e-001 -1.63422694153e-002 +4.20469519991e-002 -1.72151042425e-002 +4.20469519991e-002 -1.72151042425e-002 -9.55818920961e-001 -1.63422694153e-002
1.92800000000e+008 -9.56208102948e-001 -1.63086057317e-002 +4.16414724513e-002 -1.71945070562e-002 +4.16414724513e-002 -1.71945070562e-002 -9.56208102948e-001 -1.63086057317e-002
1.95700000000e+008 -9.56589041108e-001 -1.62747796955e-002 +4.12443543360e-002 -1.71737402096e-002 +4.12443543360e-002 -1.71737402096e-002 -9.56589041108e-001 -1.62747796955e-002
1.98600000000e+008 -9.56962021875e-001 -1.62408020407e-002 +4.08553084593e-002 -1.71528144591e-002 +4.08553084593e-002 -1.71528144591e-002 -9.56962021875e-001 -1.62408020407e-002
2.01500000000e+008 -9.57327317712e-001 -1.62066829395e-002 +4.04740597017e-002 -1.71317399990e-002 +4.04740597017e-002 -1.71317399990e-002 -9.57327317712e-001 -1.62066829395e-002
2.04400000000e+008 -9.57685187977e-001 -1.61724320370e-002 +4.01003461417e-002 -1.71105264968e-002 +4.01003461417e-002 -1.71105264968e-002 -9.57685187977e-001 -1.61724320370e-002
2.07300000000e+008 -9.58035879730e-001 -1.61380584843e-002 +3.97339182437e-002 -1.70891831252e-002 +3.97339182437e-002 -1.70891831252e-002 -9.58035879730e-001 -1.61380584843e-002
2.10200000000e+008 -9.58379628481e-001 -1.61035709679e-002 +3.93745381082e-002 -1.70677185927e-002 +3.93745381082e-002 -1.70677185927e-002 -9.58379628481e-001 -1.61035709679e-002
2.13100000000e+008 -9.58716658879e-001 -1.60689777377e-002 +3.90219787760e-002 -1.70461411708e-002 +3.90219787760e-002 -1.70461411708e-002 -9.58716658879e-001 -1.60689777377e-002
2.16000000000e+008 -9.59047185356e-001 -1.60342866332e-002 +3.86760235831e-002 -1.70244587205e-002 +3.86760235831e-002 -1.70244587205e-002 -9.59047185356e-001 -1.60342866332e-002
2.18900000000e+008 -9.59371412722e-001 -1.59995051073e-002 +3.83364655619e-002 -1.70026787162e-002 +3.83364655619e-002 -1.70026787162e-002 -9.59371412722e-001 -1.59995051073e-002
2.21800000000e+008 -9.59689536715e-001 -1.59646402485e-002 +3.80031068846e-002 -1.69808082674e-002 +3.80031068846e-002 -1.69808082674e-002 -9.59689536715e-001 -1.59646402485e-002
2.24700000000e+008 -9.60001744520e-001 -1.59296988018e-002 +3.76757583448e-002 -1.69588541405e-002 +3.76757583448e-002 -1.69588541405e-002 -9.60001744520e-001 -1.59296988018e-002
2.27600000000e+008 -9.60308215245e-001 -1.58946871882e-002 +3.73542388760e-002 -1.69368227775e-002 +3.73542388760e-002 -1.69368227775e-002 -9.60308215245e-001 -1.58946871882e-002
2.30500000000e+008 -9.60609120371e-001 -1.58596115228e-002 +3.70383751015e-002 -1.69147203140e-002 +3.70383751015e-002 -1.69147203140e-002 -9.60609120371e-001 -1.58596115228e-002
2.33400000000e+008 -9.60904624164e-001 -1.58244776312e-002 +3.67280009151e-002 -1.68925525967e-002 +3.67280009151e-002 -1.68925525967e-002 -9.60904624164e-001 -1.58244776312e-002
2.36300000000e+008 -9.61194884068e-001 -1.57892910660e-002 +3.64229570896e-002 -1.68703251986e-002 +3.64229570896e-002 -1.68703251986e-002 -9.61194884068e-001 -1.57892910660e-002
2.39200000000e+008 -9.61480051070e-001 -1.57540571208e-002 +3.61230909110e-002 -1.68480434339e-002 +3.61230909110e-002 -1.68480434339e-002 -9.61480051070e-001 -1.57540571208e-002
2.42100000000e+008 -9.61760270033e-001 -1.57187808446e-002 +3.58282558355e-002 -1.68257123719e-002 +3.58282558355e-002 -1.68257123719e-002 -9.61760270033e-001 -1.57187808446e-002
2.45000000000e+008 -9.62035680022e-001 -1.56834670543e-002 +3.55383111699e-002 -1.68033368498e-002 +3.55383111699e-002 -1.68033368498e-002 -9.62035680022e-001 -1.56834670543e-002
2.47900000000e+008 -9.62306414599e-001 -1.56481203470e-002 +3.52531217707e-002 -1.67809214846e-002 +3.52531217707e-002 -1.67809214846e-002 -9.62306414599e-001 -1.56481203470e-002
2.50800000000e+008 -9.62572602102e-001 -1.56127451113e-002 +3.49725577628e-002 -1.67584706852e-002 +3.49725577628e-002 -1.67584706852e-002 -9.62572602102e-001 -1.56127451113e-002
2.53700000000e+008 -9.62834365907e-001 -1.55773455381e-002 +3.46964942754e-002 -1.67359886619e-002 +3.46964942754e-002 -1.67359886619e-002 -9.62834365907e-001 -1.55773455381e-002
2.56600000000e+008 -9.63091824678e-001 -1.55419256301e-002 +3.44248111938e-002 -1.67134794376e-002 +3.44248111938e-002 -1.67134794376e-002 -9.63091824678e-001 -1.55419256301e-002
2.59500000000e+008 -9.63345092594e-001 -1.55064892119e-002 +3.41573929268e-002 -1.66909468564e-002 +3.41573929268e-002 -1.66909468564e-002 -9.63345092594e-001 -1.55064892119e-002
2.62400000000e+008 -9.63594279568e-001 -1.54710399385e-002 +3.38941281865e-002 -1.66683945927e-002 +3.38941281865e-002 -1.66683945927e-002 -9.63594279568e-001 -1.54710399385e-002
2.65300000000e+008 -9.63839491455e-001 -1.54355813036e-002 +3.36349097833e-002 -1.66458261596e-002 +3.36349097833e-002 -1.66458261596e-002 -9.63839491455e-001 -1.54355813036e-002
2.68200000000e+008 -9.64080830239e-001 -1.54001166475e-002 +3.33796344305e-002 -1.66232449168e-002 +3.33796344305e-002 -1.66232449168e-002 -9.64080830239e-001 -1.54001166475e-002
2.71100000000e+008 -9.64318394219e-001 -1.53646491645e-002 +3.31282025621e-002 -1.66006540777e-002 +3.31282025621e-002 -1.66006540777e-002 -9.64318394219e-001 -1.53646491645e-002
2.74000000000e+008 -9.64552278181e-001 -1.53291819099e-002 +3.28805181596e-002 -1.65780567166e-002 +3.28805181596e-002 -1.65780567166e-002 -9.64552278181e-001 -1.53291819099e-002
2.76900000000e+008 -9.64782573554e-001 -1.52937178066e-002 +3.26364885897e-002 -1.65554557753e-002 +3.26364885897e-002 -1.65554557753e-002 -9.64782573554e-001 -1.52937178066e-002
2.79800000000e+008 -9.65009368570e-001 -1.52582596513e-002 +3.23960244502e-002 -1.65328540694e-002 +3.23960244502e-002 -1.65328540694e-002 -9.65009368570e-001 -1.52582596513e-002
2.82700000000e+008 -9.65232748402e-001 -1.52228101201e-002 +3.21590394248e-002 -1.65102542938e-002 +3.21590394248e-002 -1.65102542938e-002 -9.65232748402e-001 -1.52228101201e-002
2.85600000000e+008 -9.65452795305e-001 -1.51873717746e-002 +3.19254501460e-002 -1.64876590286e-002 +3.19254501460e-002 -1.64876590286e-002 -9.65452795305e-001 -1.51873717746e-002
2.88500000000e+008 -9.65669588740e-001 -1.51519470668e-002 +3.16951760651e-002 -1.64650707441e-002 +3.16951760651e-002 -1.64650707441e-002 -9.65669588740e-001 -1.51519470668e-002
2.91400000000e+008 -9.65883205501e-001 -1.51165383438e-002 +3.14681393292e-002 -1.64424918062e-002 +3.14681393292e-002 -1.64424918062e-002 -9.65883205501e-001 -1.51165383438e-002
2.94300000000e+008 -9.66093719825e-001 -1.50811478533e-002 +3.12442646654e-002 -1.64199244805e-002 +3.12442646654e-002 -1.64199244805e-002 -9.66093719825e-001 -1.50811478533e-002
2.97200000000e+008 -9.66301203508e-001 -1.50457777472e-002 +3.10234792699e-002 -1.63973709372e-002 +3.10234792699e-002 -1.63973709372e-002 -9.66301203508e-001 -1.50457777472e-002
3.00100000000e+008 -9.66505726002e-001 -1.50104300864e-002 +3.08057127038e-002 -1.63748332552e-002 +3.08057127038e-002 -1.63748332552e-002 -9.66505726002e-001 -1.50104300864e-002
3.03000000000e+008 -9.66707354517e-001 -1.49751068445e-002 +3.05908967941e-002 -1.63523134261e-002 +3.05908967941e-002 -1.63523134261e-002 -9.66707354517e-001 -1.49751068445e-002
3.05900000000e+008 -9.66906154114e-001 -1.49398099117e-002 +3.03789655394e-002 -1.63298133580e-002 +3.03789655394e-002 -1.63298133580e-002 -9.66906154114e-001 -1.49398099117e-002
3.08800000000e+008 -9.67102187792e-001 -1.49045410984e-002 +3.01698550212e-002 -1.63073348789e-002 +3.01698550212e-002 -1.63073348789e-002 -9.67102187792e-001 -1.49045410984e-002
3.11700000000e+008 -9.67295516575e-001 -1.48693021388e-002 +2.99635033182e-002 -1.62848797407e-002 +2.99635033182e-002 -1.62848797407e-002 -9.67295516575e-001 -1.48693021388e-002
3.14600000000e+008 -9.67486199589e-001 -1.48340946938e-002 +2.97598504266e-002 -1.62624496218e-002 +2.97598504266e-002 -1.62624496218e-002 -9.67486199589e-001 -1.48340946938e-002
3.17500000000e+008 -9.67674294138e-001 -1.47989203543e-002 +2.95588381828e-002 -1.62400461306e-002 +2.95588381828e-002 -1.62400461306e-002 -9.67674294138e-001 -1.47989203543e-002
3.20400000000e+008 -9.67859855779e-001 -1.47637806442e-002 +2.93604101910e-002 -1.62176708082e-002 +2.93604101910e-002 -1.62176708082e-002 -9.67859855779e-001 -1.47637806442e-002
3.23300000000e+008 -9.68042938387e-001 -1.47286770232e-002 +2.91645117536e-002 -1.61953251315e-002 +2.91645117536e-002 -1.61953251315e-002 -9.68042938387e-001 -1.47286770232e-002
3.26200000000e+008 -9.68223594226e-001 -1.46936108892e-002 +2.89710898051e-002 -1.61730105156e-002 +2.89710898051e-002 -1.61730105156e-002 -9.68223594226e-001 -1.46936108892e-002
3.29100000000e+008 -9.68401874004e-001 -1.46585835811e-002 +2.87800928495e-002 -1.61507283164e-002 +2.87800928495e-002 -1.61507283164e-002 -9.68401874004e-001 -1.46585835811e-002
3.32000000000e+008 -9.68577826939e-001 -1.46235963812e-002 +2.85914709000e-002 -1.61284798331e-002 +2.85914709000e-002 -1.61284798331e-002 -9.68577826939e-001 -1.46235963812e-002
3.34900000000e+008 -9.68751500811e-001 -1.45886505174e-002 +2.84051754221e-002 -1.61062663104e-002 +2.84051754221e-002 -1.61062663104e-002 -9.68751500811e-001 -1.45886505174e-002
3.37800000000e+008 -9.68922942020e-001 -1.45537471654e-002 +2.82211592789e-002 -1.60840889406e-002 +2.82211592789e-002 -1.60840889406e-002 -9.68922942020e-001 -1.45537471654e-002
3.40700000000e+008 -9.69092195634e-001 -1.45188874510e-002 +2.80393766793e-002 -1.60619488663e-002 +2.80393766793e-002 -1.60619488663e-002 -9.69092195634e-001 -1.45188874510e-002
3.43600000000e+008 -9.69259305440e-001 -1.44840724517e-002 +2.78597831281e-002 -1.60398471813e-002 +2.78597831281e-002 -1.60398471813e-002 -9.69259305440e-001 -1.44840724517e-002
3.46500000000e+008 -9.69424313991e-001 -1.44493031991e-002 +2.76823353790e-002 -1.60177849337e-002 +2.76823353790e-002 -1.60177849337e-002 -9.69424313991e-001 -1.44493031991e-002
3.49400000000e+008 -9.69587262651e-001 -1.44145806801e-002 +2.75069913888e-002 -1.59957631267e-002 +2.75069913888e-002 -1.59957631267e-002 -9.69587262651e-001 -1.44145806801e-002
3.52300000000e+008 -9.69748191636e-001 -1.43799058394e-002 +2.73337102745e-002 -1.59737827212e-002 +2.73337102745e-002 -1.59737827212e-002 -9.69748191636e-001 -1.43799058394e-002
3.55200000000e+008 -9.69907140057e-001 -1.43452795805e-002 +2.71624522718e-002 -1.59518446368e-002 +2.71624522718e-002 -1.59518446368e-002 -9.69907140057e-001 -1.43452795805e-002
3.58100000000e+008 -9.70064145961e-001 -1.43107027676e-002 +2.69931786953e-002 -1.59299497537e-002 +2.69931786953e-002 -1.59299497537e-002 -9.70064145961e-001 -1.43107027676e-002
3.61000000000e+008 -9.70219246362e-001 -1.42761762271e-002 +2.68258519012e-002 -1.59080989143e-002 +2.68258519012e-002 -1.59080989143e-002 -9.70219246362e-001 -1.42761762271e-002
3.63900000000e+008 -9.70372477284e-001 -1.42417007490e-002 +2.66604352505e-002 -1.58862929243e-002 +2.66604352505e-002 -1.58862929243e-002 -9.70372477284e-001 -1.42417007490e-002
3.66800000000e+008 -9.70523873791e-001 -1.42072770882e-002 +2.64968930745e-002 -1.58645325544e-002 +2.64968930745e-002 -1.58645325544e-002 -9.70523873791e-001 -1.42072770882e-002
3.69700000000e+008 -9.70673470022e-001 -1.41729059662e-002 +2.63351906416e-002 -1.58428185416e-002 +2.63351906416e-002 -1.58428185416e-002 -9.70673470022e-001 -1.41729059662e-002
3.72600000000e+008 -9.70821299222e-001 -1.41385880719e-002 +2.61752941256e-002 -1.58211515904e-002 +2.61752941256e-002 -1.58211515904e-002 -9.70821299222e-001 -1.41385880719e-002
3.75500000000e+008 -9.70967393771e-001 -1.41043240630e-002 +2.60171705748e-002 -1.57995323739e-002 +2.60171705748e-002 -1.57995323739e-002 -9.70967393771e-001 -1.41043240630e-002
3.78400000000e+008 -9.71111785216e-001 -1.40701145673e-002 +2.58607878830e-002 -1.57779615353e-002 +2.58607878830e-002 -1.57779615353e-002 -9.71111785216e-001 -1.40701145673e-002
3.81300000000e+008 -9.71254504295e-001 -1.40359601836e-002 +2.57061147616e-002 -1.57564396886e-002 +2.57061147616e-002 -1.57564396886e-002 -9.71254504295e-001 -1.40359601836e-002
3.84200000000e+008 -9.71395580966e-001 -1.40018614830e-002 +2.55531207121e-002 -1.57349674200e-002 +2.55531207121e-002 -1.57349674200e-002 -9.71395580966e-001 -1.40018614830e-002
3.87100000000e+008 -9.71535044431e-001 -1.39678190098e-002 +2.54017760011e-002 -1.57135452888e-002 +2.54017760011e-002 -1.57135452888e-002 -9.71535044431e-001 -1.39678190098e-002
3.90000000000e+008 -9.71672923165e-001 -1.39338332823e-002 +2.52520516346e-002 -1.56921738285e-002 +2.52520516346e-002 -1.56921738285e-002 -9.71672923165e-001 -1.39338332823e-002
3.92900000000e+008 -9.71809244932e-001 -1.38999047942e-002 +2.51039193348e-002 -1.56708535474e-002 +2.51039193348e-002 -1.56708535474e-002 -9.71809244932e-001 -1.38999047942e-002
3.95800000000e+008 -9.71944036815e-001 -1.38660340151e-002 +2.49573515171e-002 -1.56495849299e-002 +2.49573515171e-002 -1.56495849299e-002 -9.71944036815e-001 -1.38660340151e-002
3.98700000000e+008 -9.72077325233e-001 -1.38322213915e-002 +2.48123212679e-002 -1.56283684373e-002 +2.48123212679e-002 -1.56283684373e-002 -9.72077325233e-001 -1.38322213915e-002
4.01600000000e+008 -9.72209135963e-001 -1.37984673478e-002 +2.46688023237e-002 -1.56072045085e-002 +2.46688023236e-002 -1.56072045085e-002 -9.72209135963e-001 -1.37984673478e-002
4.04500000000e+008 -9.72339494163e-001 -1.37647722868e-002 +2.45267690505e-002 -1.55860935607e-002 +2.45267690505e-002 -1.55860935607e-002 -9.72339494163e-001 -1.37647722868e-002
4.07400000000e+008 -9.72468424386e-001 -1.37311365906e-002 +2.43861964249e-002 -1.55650359905e-002 +2.43861964249e-002 -1.55650359905e-002 -9.72468424386e-001 -1.37311365906e-002
4.10300000000e+008 -9.72595950603e-001 -1.36975606215e-002 +2.42470600142e-002 -1.55440321746e-002 +2.42470600142e-002 -1.55440321746e-002 -9.72595950603e-001 -1.36975606215e-002
4.13200000000e+008 -9.72722096220e-001 -1.36640447226e-002 +2.41093359596e-002 -1.55230824700e-002 +2.41093359596e-002 -1.55230824700e-002 -9.72722096220e-001 -1.36640447226e-002
4.16100000000e+008 -9.72846884094e-001 -1.36305892184e-002 +2.39730009576e-002 -1.55021872155e-002 +2.39730009576e-002 -1.55021872155e-002 -9.72846884094e-001 -1.36305892184e-002
4.19000000000e+008 -9.72970336551e-001 -1.35971944153e-002 +2.38380322441e-002 -1.54813467316e-002 +2.38380322441e-002 -1.54813467316e-002 -9.72970336551e-001 -1.35971944153e-002
