# HZ S RI R 50
1.00000000000e+008 -9.63319634585e-001 -9.96603918605e-003 +3.51307599283e-002 -1.04296203276e-002 +3.51307599283e-002 -1.04296203276e-002 -9.63319634585e-001 -9.96603918605e-003
1.02900000000e+008 -9.63871399518e-001 -9.94249029310e-003 +3.45567118843e-002 -1.04193513341e-002 +3.45567118843e-002 -1.04193513341e-002 -9.63871399518e-001 -9.94249029310e-003
1.05800000000e+008 -9.64401230327e-001 -9.91856028642e-003 +3.40049087655e-002 -1.04086924590e-002 +3.40049087655e-002 -1.04086924590e-002 -9.64401230327e-001 -9.91856028642e-003
1.08700000000e+008 -9.64910553241e-001 -9.89428124672e-003 +3.34739114623e-002 -1.03976758141e-002 +3.34739114623e-002 -1.03976758141e-002 -9.64910553241e-001 -9.89428124672e-003
1.11600000000e+008 -9.65400666711e-001 -9.86968233870e-003 +3.29624094929e-002 -1.03863305953e-002 +3.29624094929e-002 -1.03863305953e-002 -9.65400666711e-001 -9.86968233870e-003
1.14500000000e+008 -9.65872755821e-001 -9.84479013781e-003 +3.24692065151e-002 -1.03746834086e-002 +3.24692065151e-002 -1.03746834086e-002 -9.65872755821e-001 -9.84479013781e-003
1.17400000000e+008 -9.66327904759e-001 -9.81962891333e-003 +3.19932077877e-002 -1.03627585536e-002 +3.19932077877e-002 -1.03627585536e-002 -9.66327904759e-001 -9.81962891333e-003
1.20300000000e+008 -9.66767107643e-001 -9.79422087451e-003 +3.15334092807e-002 -1.03505782695e-002 +3.15334092807e-002 -1.03505782695e-002 -9.66767107643e-001 -9.79422087451e-003
1.23200000000e+008 -9.67191277964e-001 -9.76858638521e-003 +3.10888881827e-002 -1.03381629497e-002 +3.10888881827e-002 -1.03381629497e-002 -9.67191277964e-001 -9.76858638521e-003
1.26100000000e+008 -9.67601256840e-001 -9.74274415197e-003 +3.06587945977e-002 -1.03255313303e-002 +3.06587945977e-002 -1.03255313303e-002 -9.67601256840e-001 -9.74274415197e-003
1.29000000000e+008 -9.67997820257e-001 -9.71671138907e-003 +3.02423442595e-002 -1.03127006544e-002 +3.02423442595e-002 -1.03127006544e-002 -9.67997820257e-001 -9.71671138907e-003
1.31900000000e+008 -9.68381685441e-001 -9.69050396394e-003 +2.98388121190e-002 -1.02996868184e-002 +2.98388121190e-002 -1.02996868184e-002 -9.68381685441e-001 -9.69050396394e-003
1.34800000000e+008 -9.68753516489e-001 -9.66413652569e-003 +2.94475266837e-002 -1.02865044997e-002 +2.94475266837e-002 -1.02865044997e-002 -9.68753516489e-001 -9.66413652569e-003
1.37700000000e+008 -9.69113929346e-001 -9.63762261888e-003 +2.90678650056e-002 -1.02731672713e-002 +2.90678650056e-002 -1.02731672713e-002 -9.69113929346e-001 -9.63762261888e-003
1.40600000000e+008 -9.69463496220e-001 -9.61097478471e-003 +2.86992482335e-002 -1.02596877024e-002 +2.86992482335e-002 -1.02596877024e-002 -9.69463496220e-001 -9.61097478471e-003
1.43500000000e+008 -9.69802749523e-001 -9.58420465098e-003 +2.83411376545e-002 -1.02460774483e-002 +2.83411376545e-002 -1.02460774483e-002 -9.69802749523e-001 -9.58420465098e-003
1.46400000000e+008 -9.70132185372e-001 -9.55732301251e-003 +2.79930311627e-002 -1.02323473316e-002 +2.79930311627e-002 -1.02323473316e-002 -9.70132185372e-001 -9.55732301251e-003
1.49300000000e+008 -9.70452266728e-001 -9.53033990304e-003 +2.76544601009e-002 -1.02185074131e-002 +2.76544601009e-002 -1.02185074131e-002 -9.70452266728e-001 -9.53033990304e-003
1.52200000000e+008 -9.70763426205e-001 -9.50326465975e-003 +2.73249864316e-002 -1.02045670570e-002 +2.73249864316e-002 -1.02045670570e-002 -9.70763426205e-001 -9.50326465975e-003
1.55100000000e+008 -9.71066068595e-001 -9.47610598119e-003 +2.70042001942e-002 -1.01905349888e-002 +2.70042001942e-002 -1.01905349888e-002 -9.71066068595e-001 -9.47610598119e-003
1.58000000000e+008 -9.71360573137e-001 -9.44887197948e-003 +2.66917172180e-002 -1.01764193472e-002 +2.66917172180e-002 -1.01764193472e-002 -9.71360573137e-001 -9.44887197948e-003
1.60900000000e+008 -9.71647295568e-001 -9.42157022742e-003 +2.63871770581e-002 -1.01622277312e-002 +2.63871770581e-002 -1.01622277312e-002 -9.71647295568e-001 -9.42157022742e-003
1.63800000000e+008 -9.71926569973e-001 -9.39420780107e-003 +2.60902411321e-002 -1.01479672432e-002 +2.60902411321e-002 -1.01479672432e-002 -9.71926569973e-001 -9.39420780107e-003
1.66700000000e+008 -9.72198710455e-001 -9.36679131829e-003 +2.58005910315e-002 -1.01336445269e-002 +2.58005910315e-002 -1.01336445269e-002 -9.72198710455e-001 -9.36679131829e-003
1.69600000000e+008 -9.72464012662e-001 -9.33932697374e-003 +2.55179269913e-002 -1.01192658028e-002 +2.55179269913e-002 -1.01192658028e-002 -9.72464012662e-001 -9.33932697374e-003
1.72500000000e+008 -9.72722755160e-001 -9.31182057066e-003 +2.52419664995e-002 -1.01048368997e-002 +2.52419664995e-002 -1.01048368997e-002 -9.72722755160e-001 -9.31182057066e-003
1.75400000000e+008 -9.72975200691e-001 -9.28427754987e-003 +2.49724430317e-002 -1.00903632837e-002 +2.49724430317e-002 -1.00903632837e-002 -9.72975200691e-001 -9.28427754987e-003
1.78300000000e+008 -9.73221597316e-001 -9.25670301611e-003 +2.47091048976e-002 -1.00758500848e-002 +2.47091048976e-002 -1.00758500848e-002 -9.73221597316e-001 -9.25670301611e-003
1.81200000000e+008 -9.73462179461e-001 -9.22910176214e-003 +2.44517141883e-002 -1.00613021208e-002 +2.44517141883e-002 -1.00613021208e-002 -9.73462179461e-001 -9.22910176214e-003
1.84100000000e+008 -9.73697168870e-001 -9.20147829085e-003 +2.42000458130e-002 -1.00467239192e-002 +2.42000458130e-002 -1.00467239192e-002 -9.73697168870e-001 -9.20147829085e-003
1.87000000000e+008 -9.73926775478e-001 -9.17383683536e-003 +2.39538866185e-002 -1.00321197380e-002 +2.39538866185e-002 -1.00321197380e-002 -9.73926775478e-001 -9.17383683536e-003
1.89900000000e+008 -9.74151198217e-001 -9.14618137760e-003 +2.37130345803e-002 -1.00174935833e-002 +2.37130345803e-002 -1.00174935833e-002 -9.74151198217e-001 -9.14618137760e-003
1.92800000000e+008 -9.74370625745e-001 -9.11851566529e-003 +2.34772980608e-002 -1.00028492273e-002 +2.34772980608e-002 -1.00028492273e-002 -9.74370625745e-001 -9.11851566529e-003
1.95700000000e+008 -9.74585237125e-001 -9.09084322757e-003 +2.32464951270e-002 -9.98819022318e-003 +2.32464951270e-002 -9.98819022318e-003 -9.74585237125e-001 -9.09084322757e-003
1.98600000000e+008 -9.74795202450e-001 -9.06316738942e-003 +2.30204529228e-002 -9.97351991981e-003 +2.30204529228e-002 -9.97351991981e-003 -9.74795202450e-001 -9.06316738942e-003
2.01500000000e+008 -9.75000683414e-001 -9.03549128490e-003 +2.27990070898e-002 -9.95884147504e-003 +2.27990070898e-002 -9.95884147504e-003 -9.75000683414e-001 -9.03549128490e-003
2.04400000000e+008 -9.75201833838e-001 -9.00781786942e-003 +2.25820012330e-002 -9.94415786785e-003 +2.25820012330e-002 -9.94415786785e-003 -9.75201833838e-001 -9.00781786942e-003
2.07300000000e+008 -9.75398800167e-001 -8.98014993104e-003 +2.23692864278e-002 -9.92947190976e-003 +2.23692864278e-002 -9.92947190976e-003 -9.75398800167e-001 -8.98014993104e-003
2.10200000000e+008 -9.75591721914e-001 -8.95249010096e-003 +2.21607207628e-002 -9.91478625521e-003 +2.21607207628e-002 -9.91478625521e-003 -9.75591721914e-001 -8.95249010096e-003
2.13100000000e+008 -9.75780732083e-001 -8.92484086321e-003 +2.19561689179e-002 -9.90010341133e-003 +2.19561689179e-002 -9.90010341133e-003 -9.75780732083e-001 -8.92484086321e-003
2.16000000000e+008 -9.75965957558e-001 -8.89720456362e-003 +2.17555017717e-002 -9.88542574689e-003 +2.17555017717e-002 -9.88542574689e-003 -9.75965957558e-001 -8.89720456362e-003
2.18900000000e+008 -9.76147519459e-001 -8.86958341816e-003 +2.15585960381e-002 -9.87075550067e-003 +2.15585960381e-002 -9.87075550067e-003 -9.76147519459e-001 -8.86958341816e-003
2.21800000000e+008 -9.76325533480e-001 -8.84197952070e-003 +2.13653339288e-002 -9.85609478917e-003 +2.13653339288e-002 -9.85609478917e-003 -9.76325533480e-001 -8.84197952070e-003
2.24700000000e+008 -9.76500110196e-001 -8.81439485021e-003 +2.11756028388e-002 -9.84144561383e-003 +2.11756028388e-002 -9.84144561383e-003 -9.76500110196e-001 -8.81439485021e-003
2.27600000000e+008 -9.76671355359e-001 -8.78683127746e-003 +2.09892950543e-002 -9.82680986774e-003 +2.09892950543e-002 -9.82680986774e-003 -9.76671355359e-001 -8.78683127746e-003
2.30500000000e+008 -9.76839370159e-001 -8.75929057124e-003 +2.08063074804e-002 -9.81218934188e-003 +2.08063074804e-002 -9.81218934188e-003 -9.76839370159e-001 -8.75929057124e-003
2.33400000000e+008 -9.77004251482e-001 -8.73177440423e-003 +2.06265413870e-002 -9.79758573094e-003 +2.06265413870e-002 -9.79758573094e-003 -9.77004251482e-001 -8.73177440423e-003
2.36300000000e+008 -9.77166092142e-001 -8.70428435836e-003 +2.04499021719e-002 -9.78300063874e-003 +2.04499021719e-002 -9.78300063874e-003 -9.77166092142e-001 -8.70428435836e-003
2.39200000000e+008 -9.77324981100e-001 -8.67682192996e-003 +2.02762991395e-002 -9.76843558334e-003 +2.02762991395e-002 -9.76843558334e-003 -9.77324981100e-001 -8.67682192996e-003
2.42100000000e+008 -9.77481003668e-001 -8.64938853443e-003 +2.01056452935e-002 -9.75389200173e-003 +2.01056452935e-002 -9.75389200173e-003 -9.77481003668e-001 -8.64938853443e-003
2.45000000000e+008 -9.77634241702e-001 -8.62198551073e-003 +1.99378571435e-002 -9.73937125431e-003 +1.99378571435e-002 -9.73937125431e-003 -9.77634241702e-001 -8.62198551073e-003
2.47900000000e+008 -9.77784773780e-001 -8.59461412549e-003 +1.97728545238e-002 -9.72487462900e-003 +1.97728545238e-002 -9.72487462900e-003 -9.77784773780e-001 -8.59461412549e-003
2.50800000000e+008 -9.77932675372e-001 -8.56727557692e-003 +1.96105604229e-002 -9.71040334518e-003 +1.96105604229e-002 -9.71040334518e-003 -9.77932675372e-001 -8.56727557692e-003
2.53700000000e+008 -9.78078018994e-001 -8.53997099845e-003 +1.94509008247e-002 -9.69595855729e-003 +1.94509008247e-002 -9.69595855729e-003 -9.78078018994e-001 -8.53997099845e-003
2.56600000000e+008 -9.78220874361e-001 -8.51270146216e-003 +1.92938045582e-002 -9.68154135828e-003 +1.92938045582e-002 -9.68154135828e-003 -9.78220874361e-001 -8.51270146216e-003
2.59500000000e+008 -9.78361308522e-001 -8.48546798195e-003 +1.91392031579e-002 -9.66715278281e-003 +1.91392031579e-002 -9.66715278281e-003 -9.78361308522e-001 -8.48546798195e-003
2.62400000000e+008 -9.78499385991e-001 -8.45827151663e-003 +1.89870307305e-002 -9.65279381027e-003 +1.89870307305e-002 -9.65279381027e-003 -9.78499385991e-001 -8.45827151663e-003
2.65300000000e+008 -9.78635168871e-001 -8.43111297268e-003 +1.88372238318e-002 -9.63846536761e-003 +1.88372238318e-002 -9.63846536761e-003 -9.78635168871e-001 -8.43111297268e-003
2.68200000000e+008 -9.78768716969e-001 -8.40399320698e-003 +1.86897213490e-002 -9.62416833203e-003 +1.86897213490e-002 -9.62416833203e-003 -9.78768716969e-001 -8.40399320698e-003
2.71100000000e+008 -9.78900087904e-001 -8.37691302927e-003 +1.85444643906e-002 -9.60990353348e-003 +1.85444643906e-002 -9.60990353348e-003 -9.78900087904e-001 -8.37691302927e-003
2.74000000000e+008 -9.79029337212e-001 -8.34987320455e-003 +1.84013961829e-002 -9.59567175701e-003 +1.84013961829e-002 -9.59567175701e-003 -9.79029337212e-001 -8.34987320455e-003
2.76900000000e+008 -9.79156518441e-001 -8.32287445530e-003 +1.82604619717e-002 -9.58147374503e-003 +1.82604619717e-002 -9.58147374503e-003 -9.79156518441e-001 -8.32287445530e-003
2.79800000000e+008 -9.79281683241e-001 -8.29591746359e-003 +1.81216089302e-002 -9.56731019940e-003 +1.81216089302e-002 -9.56731019940e-003 -9.79281683241e-001 -8.29591746359e-003
2.82700000000e+008 -9.79404881452e-001 -8.26900287305e-003 +1.79847860713e-002 -9.55318178340e-003 +1.79847860713e-002 -9.55318178340e-003 -9.79404881452e-001 -8.26900287305e-003
2.85600000000e+008 -9.79526161186e-001 -8.24213129074e-003 +1.78499441655e-002 -9.53908912364e-003 +1.78499441655e-002 -9.53908912364e-003 -9.79526161186e-001 -8.24213129074e-003
2.88500000000e+008 -9.79645568902e-001 -8.21530328894e-003 +1.77170356629e-002 -9.52503281180e-003 +1.77170356629e-002 -9.52503281180e-003 -9.79645568902e-001 -8.21530328894e-003
2.91400000000e+008 -9.79763149481e-001 -8.18851940681e-003 +1.75860146192e-002 -9.51101340631e-003 +1.75860146192e-002 -9.51101340631e-003 -9.79763149481e-001 -8.18851940681e-003
2.94300000000e+008 -9.79878946292e-001 -8.16178015198e-003 +1.74568366260e-002 -9.49703143393e-003 +1.74568366260e-002 -9.49703143393e-003 -9.79878946292e-001 -8.16178015198e-003
2.97200000000e+008 -9.79993001261e-001 -8.13508600202e-003 +1.73294587448e-002 -9.48308739127e-003 +1.73294587448e-002 -9.48308739127e-003 -9.79993001261e-001 -8.13508600202e-003
3.00100000000e+008 -9.80105354928e-001 -8.10843740589e-003 +1.72038394441e-002 -9.46918174617e-003 +1.72038394441e-002 -9.46918174617e-003 -9.80105354928e-001 -8.10843740589e-003
3.03000000000e+008 -9.80216046511e-001 -8.08183478528e-003 +1.70799385403e-002 -9.45531493906e-003 +1.70799385403e-002 -9.45531493906e-003 -9.80216046511e-001 -8.08183478528e-003
3.05900000000e+008 -9.80325113957e-001 -8.05527853584e-003 +1.69577171411e-002 -9.44148738425e-003 +1.69577171411e-002 -9.44148738425e-003 -9.80325113957e-001 -8.05527853584e-003
3.08800000000e+008 -9.80432593999e-001 -8.02876902844e-003 +1.68371375921e-002 -9.42769947112e-003 +1.68371375921e-002 -9.42769947112e-003 -9.80432593999e-001 -8.02876902844e-003
3.11700000000e+008 -9.80538522200e-001 -8.00230661027e-003 +1.67181634261e-002 -9.41395156524e-003 +1.67181634261e-002 -9.41395156524e-003 -9.80538522200e-001 -8.00230661027e-003
3.14600000000e+008 -9.80642933009e-001 -7.97589160595e-003 +1.66007593149e-002 -9.40024400949e-003 +1.66007593149e-002 -9.40024400949e-003 -9.80642933009e-001 -7.97589160595e-003
3.17500000000e+008 -9.80745859797e-001 -7.94952431854e-003 +1.64848910231e-002 -9.38657712508e-003 +1.64848910231e-002 -9.38657712508e-003 -9.80745859797e-001 -7.94952431854e-003
3.20400000000e+008 -9.80847334908e-001 -7.92320503056e-003 +1.63705253650e-002 -9.37295121252e-003 +1.63705253650e-002 -9.37295121252e-003 -9.80847334908e-001 -7.92320503056e-003
3.23300000000e+008 -9.80947389695e-001 -7.89693400484e-003 +1.62576301626e-002 -9.35936655256e-003 +1.62576301626e-002 -9.35936655256e-003 -9.80947389695e-001 -7.89693400484e-003
3.26200000000e+008 -9.81046054560e-001 -7.87071148548e-003 +1.61461742067e-002 -9.34582340707e-003 +1.61461742067e-002 -9.34582340707e-003 -9.81046054560e-001 -7.87071148548e-003
3.29100000000e+008 -9.81143358991e-001 -7.84453769865e-003 +1.60361272188e-002 -9.33232201986e-003 +1.60361272188e-002 -9.33232201986e-003 -9.81143358991e-001 -7.84453769865e-003
3.32000000000e+008 -9.81239331598e-001 -7.81841285341e-003 +1.59274598155e-002 -9.31886261752e-003 +1.59274598155e-002 -9.31886261752e-003 -9.81239331598e-001 -7.81841285341e-003
3.34900000000e+008 -9.81334000148e-001 -7.79233714244e-003 +1.58201434743e-002 -9.30544541015e-003 +1.58201434743e-002 -9.30544541015e-003 -9.81334000148e-001 -7.79233714244e-003
3.37800000000e+008 -9.81427391593e-001 -7.76631074278e-003 +1.57141505013e-002 -9.29207059207e-003 +1.57141505013e-002 -9.29207059207e-003 -9.81427391593e-001 -7.76631074278e-003
3.40700000000e+008 -9.81519532104e-001 -7.74033381655e-003 +1.56094539997e-002 -9.27873834256e-003 +1.56094539997e-002 -9.27873834256e-003 -9.81519532104e-001 -7.74033381655e-003
3.43600000000e+008 -9.81610447098e-001 -7.71440651153e-003 +1.55060278406e-002 -9.26544882647e-003 +1.55060278406e-002 -9.26544882647e-003 -9.81610447098e-001 -7.71440651153e-003
3.46500000000e+008 -9.81700161269e-001 -7.68852896185e-003 +1.54038466345e-002 -9.25220219486e-003 +1.54038466345e-002 -9.25220219486e-003 -9.81700161269e-001 -7.68852896185e-003
3.49400000000e+008 -9.81788698610e-001 -7.66270128859e-003 +1.53028857043e-002 -9.23899858561e-003 +1.53028857043e-002 -9.23899858561e-003 -9.81788698610e-001 -7.66270128859e-003
3.52300000000e+008 -9.81876082442e-001 -7.63692360029e-003 +1.52031210596e-002 -9.22583812397e-003 +1.52031210596e-002 -9.22583812397e-003 -9.81876082442e-001 -7.63692360029e-003
3.55200000000e+008 -9.81962335439e-001 -7.61119599354e-003 +1.51045293719e-002 -9.21272092310e-003 +1.51045293719e-002 -9.21272092310e-003 -9.81962335439e-001 -7.61119599354e-003
3.58100000000e+008 -9.82047479646e-001 -7.58551855349e-003 +1.50070879512e-002 -9.19964708463e-003 +1.50070879512e-002 -9.19964708463e-003 -9.82047479646e-001 -7.58551855349e-003
3.61000000000e+008 -9.82131536506e-001 -7.55989135432e-003 +1.49107747230e-002 -9.18661669908e-003 +1.49107747230e-002 -9.18661669908e-003 -9.82131536506e-001 -7.55989135432e-003
3.63900000000e+008 -9.82214526883e-001 -7.53431445977e-003 +1.48155682075e-002 -9.17362984640e-003 +1.48155682075e-002 -9.17362984640e-003 -9.82214526883e-001 -7.53431445977e-003
3.66800000000e+008 -9.82296471073e-001 -7.50878792349e-003 +1.47214474981e-002 -9.16068659640e-003 +1.47214474981e-002 -9.16068659640e-003 -9.82296471073e-001 -7.50878792349e-003
3.69700000000e+008 -9.82377388835e-001 -7.48331178959e-003 +1.46283922423e-002 -9.14778700915e-003 +1.46283922423e-002 -9.14778700915e-003 -9.82377388835e-001 -7.48331178959e-003
3.72600000000e+008 -9.82457299401e-001 -7.45788609296e-003 +1.45363826222e-002 -9.13493113543e-003 +1.45363826222e-002 -9.13493113543e-003 -9.82457299401e-001 -7.45788609296e-003
3.75500000000e+008 -9.82536221500e-001 -7.43251085969e-003 +1.44453993367e-002 -9.12211901712e-003 +1.44453993367e-002 -9.12211901712e-003 -9.82536221500e-001 -7.43251085969e-003
3.78400000000e+008 -9.82614173369e-001 -7.40718610747e-003 +1.43554235839e-002 -9.10935068755e-003 +1.43554235839e-002 -9.10935068755e-003 -9.82614173369e-001 -7.40718610747e-003
3.81300000000e+008 -9.82691172775e-001 -7.38191184591e-003 +1.42664370448e-002 -9.09662617189e-003 +1.42664370448e-002 -9.09662617189e-003 -9.82691172775e-001 -7.38191184591e-003
3.84200000000e+008 -9.82767237028e-001 -7.35668807693e-003 +1.41784218666e-002 -9.08394548747e-003 +1.41784218666e-002 -9.08394548747e-003 -9.82767237028e-001 -7.35668807693e-003
3.87100000000e+008 -9.82842382995e-001 -7.33151479504e-003 +1.40913606479e-002 -9.07130864414e-003 +1.40913606479e-002 -9.07130864414e-003 -9.82842382995e-001 -7.33151479504e-003
3.90000000000e+008 -9.82916627118e-001 -7.30639198770e-003 +1.40052364240e-002 -9.05871564453e-003 +1.40052364240e-002 -9.05871564453e-003 -9.82916627118e-001 -7.30639198770e-003
3.92900000000e+008 -9.82989985424e-001 -7.28131963556e-003 +1.39200326522e-002 -9.04616648443e-003 +1.39200326522e-002 -9.04616648443e-003 -9.82989985424e-001 -7.28131963556e-003
3.95800000000e+008 -9.83062473542e-001 -7.25629771285e-003 +1.38357331987e-002 -9.03366115300e-003 +1.38357331987e-002 -9.03366115300e-003 -9.83062473542e-001 -7.25629771285e-003
3.98700000000e+008 -9.83134106713e-001 -7.23132618754e-003 +1.37523223255e-002 -9.02119963311e-003 +1.37523223255e-002 -9.02119963311e-003 -9.83134106713e-001 -7.23132618754e-003
4.01600000000e+008 -9.83204899803e-001 -7.20640502170e-003 +1.36697846777e-002 -9.00878190156e-003 +1.36697846777e-002 -9.00878190156e-003 -9.83204899803e-001 -7.20640502170e-003
4.04500000000e+008 -9.83274867317e-001 -7.18153417168e-003 +1.35881052714e-002 -8.99640792938e-003 +1.35881052714e-002 -8.99640792938e-003 -9.83274867317e-001 -7.18153417168e-003
4.07400000000e+008 -9.83344023406e-001 -7.15671358843e-003 +1.35072694824e-002 -8.98407768203e-003 +1.35072694824e-002 -8.98407768203e-003 -9.83344023406e-001 -7.15671358843e-003
4.10300000000e+008 -9.83412381884e-001 -7.13194321765e-003 +1.34272630346e-002 -8.97179111964e-003 +1.34272630346e-002 -8.97179111964e-003 -9.83412381884e-001 -7.13194321765e-003
4.13200000000e+008 -9.83479956231e-001 -7.10722300010e-003 +1.33480719898e-002 -8.95954819728e-003 +1.33480719898e-002 -8.95954819728e-003 -9.83479956231e-001 -7.10722300010e-003
4.16100000000e+008 -9.83546759610e-001 -7.08255287173e-003 +1.32696827368e-002 -8.94734886510e-003 +1.32696827368e-002 -8.94734886510e-003 -9.83546759610e-001 -7.08255287173e-003
4.19000000000e+008 -9.83612804874e-001 -7.05793276396e-003 +1.31920819820e-002 -8.93519306862e-003 +1.31920819820e-002 -8.93519306862e-003 -9.83612804874e-001 -7.05793276396e-003
