# HZ S RI R 50
1.00000000000e+008 -9.69237054110e-001 -8.28142552733e-003 +2.92132078387e-002 -8.74480390067e-003 +2.92132078387e-002 -8.74480390067e-003 -9.69237054110e-001 -8.28142552733e-003
1.02900000000e+008 -9.69696156401e-001 -8.25813051436e-003 +2.87318237783e-002 -8.73477713189e-003 +2.87318237783e-002 -8.73477713189e-003 -9.69696156401e-001 -8.25813051436e-003
1.05800000000e+008 -9.70136834925e-001 -8.23458849305e-003 +2.82691743033e-002 -8.72449427584e-003 +2.82691743033e-002 -8.72449427584e-003 -9.70136834925e-001 -8.23458849305e-003
1.08700000000e+008 -9.70560293012e-001 -8.21082189291e-003 +2.78240431954e-002 -8.71397779442e-003 +2.78240431954e-002 -8.71397779442e-003 -9.70560293012e-001 -8.21082189291e-003
1.11600000000e+008 -9.70967625833e-001 -8.18685108273e-003 +2.73953232478e-002 -8.70324808849e-003 +2.73953232478e-002 -8.70324808849e-003 -9.70967625833e-001 -8.18685108273e-003
1.14500000000e+008 -9.71359832628e-001 -8.16269460273e-003 +2.69820039550e-002 -8.69232372993e-003 +2.69820039550e-002 -8.69232372993e-003 -9.71359832628e-001 -8.16269460273e-003
1.17400000000e+008 -9.71737827287e-001 -8.13836936541e-003 +2.65831608665e-002 -8.68122166255e-003 +2.65831608665e-002 -8.68122166255e-003 -9.71737827287e-001 -8.13836936541e-003
1.20300000000e+008 -9.72102447537e-001 -8.11389083015e-003 +2.61979463402e-002 -8.66995737674e-003 +2.61979463402e-002 -8.66995737674e-003 -9.72102447537e-001 -8.11389083015e-003
1.23200000000e+008 -9.72454462942e-001 -8.08927315548e-003 +2.58255814865e-002 -8.65854506168e-003 +2.58255814865e-002 -8.65854506168e-003 -9.72454462942e-001 -8.08927315548e-003
1.26100000000e+008 -9.72794581898e-001 -8.06452933225e-003 +2.54653491231e-002 -8.64699773856e-003 +2.54653491231e-002 -8.64699773856e-003 -9.72794581898e-001 -8.06452933225e-003
1.29000000000e+008 -9.73123457776e-001 -8.03967130056e-003 +2.51165875955e-002 -8.63532737754e-003 +2.51165875955e-002 -8.63532737754e-003 -9.73123457776e-001 -8.03967130056e-003
1.31900000000e+008 -9.73441694314e-001 -8.01471005272e-003 +2.47786853389e-002 -8.62354500067e-003 +2.47786853389e-002 -8.62354500067e-003 -9.73441694314e-001 -8.01471005272e-003
1.34800000000e+008 -9.73749850385e-001 -7.98965572416e-003 +2.44510760791e-002 -8.61166077286e-003 +2.44510760791e-002 -8.61166077286e-003 -9.73749850385e-001 -7.98965572416e-003
1.37700000000e+008 -9.74048444210e-001 -7.96451767391e-003 +2.41332345854e-002 -8.59968408232e-003 +2.41332345854e-002 -8.59968408232e-003 -9.74048444210e-001 -7.96451767391e-003
1.40600000000e+008 -9.74337957101e-001 -7.93930455609e-003 +2.38246729010e-002 -8.58762361209e-003 +2.38246729010e-002 -8.58762361209e-003 -9.74337957101e-001 -7.93930455609e-003
1.43500000000e+008 -9.74618836788e-001 -7.91402438350e-003 +2.35249369902e-002 -8.57548740365e-003 +2.35249369902e-002 -8.57548740365e-003 -9.74618836788e-001 -7.91402438350e-003
1.46400000000e+008 -9.74891500383e-001 -7.88868458441e-003 +2.32336037472e-002 -8.56328291368e-003 +2.32336037472e-002 -8.56328291368e-003 -9.74891500383e-001 -7.88868458441e-003
1.49300000000e+008 -9.75156337036e-001 -7.86329205331e-003 +2.29502783224e-002 -8.55101706483e-003 +2.29502783224e-002 -8.55101706483e-003 -9.75156337036e-001 -7.86329205331e-003
1.52200000000e+008 -9.75413710308e-001 -7.83785319643e-003 +2.26745917270e-002 -8.53869629124e-003 +2.26745917270e-002 -8.53869629124e-003 -9.75413710308e-001 -7.83785319643e-003
1.55100000000e+008 -9.75663960306e-001 -7.81237397259e-003 +2.24061986812e-002 -8.52632657944e-003 +2.24061986812e-002 -8.52632657944e-003 -9.75663960306e-001 -7.81237397259e-003
1.58000000000e+008 -9.75907405602e-001 -7.78685993005e-003 +2.21447756785e-002 -8.51391350513e-003 +2.21447756785e-002 -8.51391350513e-003 -9.75907405602e-001 -7.78685993005e-003
1.60900000000e+008 -9.76144344963e-001 -7.76131623962e-003 +2.18900192400e-002 -8.50146226636e-003 +2.18900192400e-002 -8.50146226636e-003 -9.76144344963e-001 -7.76131623962e-003
1.63800000000e+008 -9.76375058915e-001 -7.73574772473e-003 +2.16416443380e-002 -8.48897771356e-003 +2.16416443380e-002 -8.48897771356e-003 -9.76375058915e-001 -7.73574772473e-003
1.66700000000e+008 -9.76599811156e-001 -7.71015888855e-003 +2.13993829677e-002 -8.47646437670e-003 +2.13993829677e-002 -8.47646437670e-003 -9.76599811156e-001 -7.71015888855e-003
1.69600000000e+008 -9.76818849839e-001 -7.68455393858e-003 +2.11629828538e-002 -8.46392648986e-003 +2.11629828538e-002 -8.46392648986e-003 -9.76818849839e-001 -7.68455393858e-003
1.72500000000e+008 -9.77032408738e-001 -7.65893680909e-003 +2.09322062747e-002 -8.45136801368e-003 +2.09322062747e-002 -8.45136801368e-003 -9.77032408738e-001 -7.65893680909e-003
1.75400000000e+008 -9.77240708303e-001 -7.63331118145e-003 +2.07068289925e-002 -8.43879265568e-003 +2.07068289925e-002 -8.43879265568e-003 -9.77240708303e-001 -7.63331118145e-003
1.78300000000e+008 -9.77443956632e-001 -7.60768050264e-003 +2.04866392791e-002 -8.42620388884e-003 +2.04866392791e-002 -8.42620388884e-003 -9.77443956632e-001 -7.60768050264e-003
1.81200000000e+008 -9.77642350347e-001 -7.58204800228e-003 +2.02714370256e-002 -8.41360496851e-003 +2.02714370256e-002 -8.41360496851e-003 -9.77642350347e-001 -7.58204800228e-003
1.84100000000e+008 -9.77836075401e-001 -7.55641670803e-003 +2.00610329298e-002 -8.40099894794e-003 +2.00610329298e-002 -8.40099894794e-003 -9.77836075401e-001 -7.55641670803e-003
1.87000000000e+008 -9.78025307814e-001 -7.53078945982e-003 +1.98552477513e-002 -8.38838869243e-003 +1.98552477513e-002 -8.38838869243e-003 -9.78025307814e-001 -7.53078945982e-003
1.89900000000e+008 -9.78210214349e-001 -7.50516892283e-003 +1.96539116289e-002 -8.37577689234e-003 +1.96539116289e-002 -8.37577689234e-003 -9.78210214349e-001 -7.50516892283e-003
1.92800000000e+008 -9.78390953134e-001 -7.47955759940e-003 +1.94568634544e-002 -8.36316607503e-003 +1.94568634544e-002 -8.36316607503e-003 -9.78390953134e-001 -7.47955759940e-003
1.95700000000e+008 -9.78567674229e-001 -7.45395784005e-003 +1.92639502961e-002 -8.35055861582e-003 +1.92639502961e-002 -8.35055861582e-003 -9.78567674229e-001 -7.45395784005e-003
1.98600000000e+008 -9.78740520151e-001 -7.42837185352e-003 +1.90750268690e-002 -8.33795674810e-003 +1.90750268690e-002 -8.33795674810e-003 -9.78740520151e-001 -7.42837185352e-003
2.01500000000e+008 -9.78909626361e-001 -7.40280171611e-003 +1.88899550462e-002 -8.32536257260e-003 +1.88899550462e-002 -8.32536257260e-003 -9.78909626361e-001 -7.40280171611e-003
2.04400000000e+008 -9.79075121703e-001 -7.37724938024e-003 +1.87086034079e-002 -8.31277806604e-003 +1.87086034079e-002 -8.31277806604e-003 -9.79075121703e-001 -7.37724938024e-003
2.07300000000e+008 -9.79237128822e-001 -7.35171668239e-003 +1.85308468250e-002 -8.30020508898e-003 +1.85308468250e-002 -8.30020508898e-003 -9.79237128822e-001 -7.35171668239e-003
2.10200000000e+008 -9.79395764543e-001 -7.32620535042e-003 +1.83565660744e-002 -8.28764539322e-003 +1.83565660744e-002 -8.28764539322e-003 -9.79395764543e-001 -7.32620535042e-003
2.13100000000e+008 -9.79551140221e-001 -7.30071701036e-003 +1.81856474815e-002 -8.27510062855e-003 +1.81856474815e-002 -8.27510062855e-003 -9.79551140221e-001 -7.30071701036e-003
2.16000000000e+008 -9.79703362072e-001 -7.27525319271e-003 +1.80179825905e-002 -8.26257234903e-003 +1.80179825905e-002 -8.26257234903e-003 -9.79703362072e-001 -7.27525319271e-003
2.18900000000e+008 -9.79852531471e-001 -7.24981533823e-003 +1.78534678574e-002 -8.25006201887e-003 +1.78534678574e-002 -8.25006201887e-003 -9.79852531471e-001 -7.24981533823e-003
2.21800000000e+008 -9.79998745238e-001 -7.22440480341e-003 +1.76920043650e-002 -8.23757101780e-003 +1.76920043650e-002 -8.23757101780e-003 -9.79998745238e-001 -7.22440480341e-003
2.24700000000e+008 -9.80142095898e-001 -7.19902286547e-003 +1.75334975585e-002 -8.22510064613e-003 +1.75334975585e-002 -8.22510064613e-003 -9.80142095898e-001 -7.19902286547e-003
2.27600000000e+008 -9.80282671925e-001 -7.17367072705e-003 +1.73778569985e-002 -8.21265212941e-003 +1.73778569985e-002 -8.21265212941e-003 -9.80282671925e-001 -7.17367072705e-003
2.30500000000e+008 -9.80420557965e-001 -7.14834952057e-003 +1.72249961321e-002 -8.20022662283e-003 +1.72249961321e-002 -8.20022662283e-003 -9.80420557965e-001 -7.14834952057e-003
2.33400000000e+008 -9.80555835054e-001 -7.12306031229e-003 +1.70748320781e-002 -8.18782521525e-003 +1.70748320781e-002 -8.18782521525e-003 -9.80555835054e-001 -7.12306031229e-003
2.36300000000e+008 -9.80688580809e-001 -7.09780410610e-003 +1.69272854280e-002 -8.17544893300e-003 +1.69272854280e-002 -8.17544893300e-003 -9.80688580809e-001 -7.09780410610e-003
2.39200000000e+008 -9.80818869617e-001 -7.07258184705e-003 +1.67822800588e-002 -8.16309874343e-003 +1.67822800588e-002 -8.16309874343e-003 -9.80818869617e-001 -7.07258184705e-003
2.42100000000e+008 -9.80946772802e-001 -7.04739442470e-003 +1.66397429592e-002 -8.15077555822e-003 +1.66397429592e-002 -8.15077555822e-003 -9.80946772802e-001 -7.04739442470e-003
2.45000000000e+008 -9.81072358792e-001 -7.02224267614e-003 +1.64996040658e-002 -8.13848023642e-003 +1.64996040658e-002 -8.13848023642e-003 -9.81072358792e-001 -7.02224267614e-003
2.47900000000e+008 -9.81195693266e-001 -6.99712738892e-003 +1.63617961109e-002 -8.12621358744e-003 +1.63617961109e-002 -8.12621358744e-003 -9.81195693266e-001 -6.99712738892e-003
2.50800000000e+008 -9.81316839295e-001 -6.97204930379e-003 +1.62262544790e-002 -8.11397637366e-003 +1.62262544790e-002 -8.11397637366e-003 -9.81316839295e-001 -6.97204930379e-003
2.53700000000e+008 -9.81435857475e-001 -6.94700911717e-003 +1.60929170726e-002 -8.10176931303e-003 +1.60929170726e-002 -8.10176931303e-003 -9.81435857475e-001 -6.94700911717e-003
2.56600000000e+008 -9.81552806053e-001 -6.92200748357e-003 +1.59617241862e-002 -8.08959308144e-003 +1.59617241862e-002 -8.08959308144e-003 -9.81552806053e-001 -6.92200748357e-003
2.59500000000e+008 -9.81667741042e-001 -6.89704501784e-003 +1.58326183882e-002 -8.07744831494e-003 +1.58326183882e-002 -8.07744831494e-003 -9.81667741042e-001 -6.89704501784e-003
2.62400000000e+008 -9.81780716332e-001 -6.87212229723e-003 +1.57055444092e-002 -8.06533561185e-003 +1.57055444092e-002 -8.06533561185e-003 -9.81780716332e-001 -6.87212229723e-003
2.65300000000e+008 -9.81891783790e-001 -6.84723986337e-003 +1.55804490376e-002 -8.05325553474e-003 +1.55804490376e-002 -8.05325553474e-003 -9.81891783790e-001 -6.84723986337e-003
2.68200000000e+008 -9.82000993362e-001 -6.82239822416e-003 +1.54572810213e-002 -8.04120861227e-003 +1.54572810213e-002 -8.04120861227e-003 -9.82000993362e-001 -6.82239822416e-003
2.71100000000e+008 -9.82108393159e-001 -6.79759785547e-003 +1.53359909749e-002 -8.02919534094e-003 +1.53359909749e-002 -8.02919534094e-003 -9.82108393159e-001 -6.79759785547e-003
2.74000000000e+008 -9.82214029548e-001 -6.77283920278e-003 +1.52165312919e-002 -8.01721618673e-003 +1.52165312919e-002 -8.01721618673e-003 -9.82214029548e-001 -6.77283920278e-003
2.76900000000e+008 -9.82317947229e-001 -6.74812268280e-003 +1.50988560629e-002 -8.00527158667e-003 +1.50988560629e-002 -8.00527158667e-003 -9.82317947229e-001 -6.74812268280e-003
2.79800000000e+008 -9.82420189316e-001 -6.72344868481e-003 +1.49829209973e-002 -7.99336195028e-003 +1.49829209973e-002 -7.99336195028e-003 -9.82420189316e-001 -6.72344868481e-003
2.82700000000e+008 -9.82520797405e-001 -6.69881757216e-003 +1.48686833502e-002 -7.98148766093e-003 +1.48686833502e-002 -7.98148766093e-003 -9.82520797405e-001 -6.69881757216e-003
2.85600000000e+008 -9.82619811646e-001 -6.67422968348e-003 +1.47561018528e-002 -7.96964907718e-003 +1.47561018528e-002 -7.96964907718e-003 -9.82619811646e-001 -6.67422968348e-003
2.88500000000e+008 -9.82717270804e-001 -6.64968533393e-003 +1.46451366470e-002 -7.95784653397e-003 +1.46451366470e-002 -7.95784653397e-003 -9.82717270804e-001 -6.64968533393e-003
2.91400000000e+008 -9.82813212324e-001 -6.62518481637e-003 +1.45357492230e-002 -7.94608034380e-003 +1.45357492230e-002 -7.94608034380e-003 -9.82813212324e-001 -6.62518481637e-003
2.94300000000e+008 -9.82907672385e-001 -6.60072840247e-003 +1.44279023609e-002 -7.93435079783e-003 +1.44279023609e-002 -7.93435079783e-003 -9.82907672385e-001 -6.60072840247e-003
2.97200000000e+008 -9.83000685958e-001 -6.57631634368e-003 +1.43215600752e-002 -7.92265816689e-003 +1.43215600752e-002 -7.92265816689e-003 -9.83000685958e-001 -6.57631634368e-003
3.00100000000e+008 -9.83092286856e-001 -6.55194887230e-003 +1.42166875614e-002 -7.91100270248e-003 +1.42166875614e-002 -7.91100270248e-003 -9.83092286856e-001 -6.55194887230e-003
3.03000000000e+008 -9.83182507784e-001 -6.52762620232e-003 +1.41132511471e-002 -7.89938463769e-003 +1.41132511471e-002 -7.89938463769e-003 -9.83182507784e-001 -6.52762620232e-003
3.05900000000e+008 -9.83271380383e-001 -6.50334853036e-003 +1.40112182436e-002 -7.88780418810e-003 +1.40112182436e-002 -7.88780418810e-003 -9.83271380383e-001 -6.50334853036e-003
3.08800000000e+008 -9.83358935280e-001 -6.47911603647e-003 +1.39105573016e-002 -7.87626155256e-003 +1.39105573016e-002 -7.87626155256e-003 -9.83358935280e-001 -6.47911603647e-003
3.11700000000e+008 -9.83445202124e-001 -6.45492888495e-003 +1.38112377682e-002 -7.86475691404e-003 +1.38112377682e-002 -7.86475691404e-003 -9.83445202124e-001 -6.45492888495e-003
3.14600000000e+008 -9.83530209628e-001 -6.43078722504e-003 +1.37132300464e-002 -7.85329044036e-003 +1.37132300464e-002 -7.85329044036e-003 -9.83530209628e-001 -6.43078722504e-003
3.17500000000e+008 -9.83613985608e-001 -6.40669119170e-003 +1.36165054568e-002 -7.84186228488e-003 +1.36165054568e-002 -7.84186228488e-003 -9.83613985608e-001 -6.40669119170e-003
3.20400000000e+008 -9.83696557020e-001 -6.38264090622e-003 +1.35210362005e-002 -7.83047258717e-003 +1.35210362005e-002 -7.83047258717e-003 -9.83696557020e-001 -6.38264090622e-003
3.23300000000e+008 -9.83777949990e-001 -6.35863647693e-003 +1.34267953246e-002 -7.81912147370e-003 +1.34267953246e-002 -7.81912147370e-003 -9.83777949990e-001 -6.35863647693e-003
3.26200000000e+008 -9.83858189849e-001 -6.33467799973e-003 +1.33337566887e-002 -7.80780905839e-003 +1.33337566887e-002 -7.80780905839e-003 -9.83858189849e-001 -6.33467799973e-003
3.29100000000e+008 -9.83937301165e-001 -6.31076555871e-003 +1.32418949338e-002 -7.79653544322e-003 +1.32418949338e-002 -7.79653544322e-003 -9.83937301165e-001 -6.31076555871e-003
3.32000000000e+008 -9.84015307773e-001 -6.28689922671e-003 +1.31511854516e-002 -7.78530071879e-003 +1.31511854516e-002 -7.78530071879e-003 -9.84015307773e-001 -6.28689922671e-003
3.34900000000e+008 -9.84092232801e-001 -6.26307906581e-003 +1.30616043563e-002 -7.77410496480e-003 +1.30616043563e-002 -7.77410496480e-003 -9.84092232801e-001 -6.26307906581e-003
3.37800000000e+008 -9.84168098696e-001 -6.23930512786e-003 +1.29731284570e-002 -7.76294825059e-003 +1.29731284570e-002 -7.76294825059e-003 -9.84168098696e-001 -6.23930512786e-003
3.40700000000e+008 -9.84242927253e-001 -6.21557745490e-003 +1.28857352316e-002 -7.75183063558e-003 +1.28857352316e-002 -7.75183063558e-003 -9.84242927253e-001 -6.21557745490e-003
3.43600000000e+008 -9.84316739638e-001 -6.19189607969e-003 +1.27994028021e-002 -7.74075216974e-003 +1.27994028021e-002 -7.74075216974e-003 -9.84316739638e-001 -6.19189607969e-003
3.46500000000e+008 -9.84389556412e-001 -6.16826102606e-003 +1.27141099106e-002 -7.72971289404e-003 +1.27141099106e-002 -7.72971289404e-003 -9.84389556412e-001 -6.16826102606e-003
3.49400000000e+008 -9.84461397549e-001 -6.14467230935e-003 +1.26298358969e-002 -7.71871284078e-003 +1.26298358969e-002 -7.71871284078e-003 -9.84461397549e-001 -6.14467230935e-003
3.52300000000e+008 -9.84532282465e-001 -6.12112993682e-003 +1.25465606766e-002 -7.70775203409e-003 +1.25465606766e-002 -7.70775203409e-003 -9.84532282465e-001 -6.12112993682e-003
3.55200000000e+008 -9.84602230031e-001 -6.09763390800e-003 +1.24642647203e-002 -7.69683049021e-003 +1.24642647203e-002 -7.69683049021e-003 -9.84602230031e-001 -6.09763390800e-003
3.58100000000e+008 -9.84671258596e-001 -6.07418421503e-003 +1.23829290341e-002 -7.68594821789e-003 +1.23829290341e-002 -7.68594821789e-003 -9.84671258596e-001 -6.07418421503e-003
3.61000000000e+008 -9.84739386007e-001 -6.05078084301e-003 +1.23025351404e-002 -7.67510521872e-003 +1.23025351404e-002 -7.67510521872e-003 -9.84739386007e-001 -6.05078084301e-003
3.63900000000e+008 -9.84806629622e-001 -6.02742377034e-003 +1.22230650600e-002 -7.66430148743e-003 +1.22230650600e-002 -7.66430148743e-003 -9.84806629622e-001 -6.02742377034e-003
3.66800000000e+008 -9.84873006331e-001 -6.00411296902e-003 +1.21445012945e-002 -7.65353701223e-003 +1.21445012945e-002 -7.65353701223e-003 -9.84873006331e-001 -6.00411296902e-003
3.69700000000e+008 -9.84938532573e-001 -5.98084840489e-003 +1.20668268097e-002 -7.64281177510e-003 +1.20668268097e-002 -7.64281177510e-003 -9.84938532573e-001 -5.98084840489e-003
3.72600000000e+008 -9.85003224346e-001 -5.95763003801e-003 +1.19900250201e-002 -7.63212575203e-003 +1.19900250201e-002 -7.63212575203e-003 -9.85003224346e-001 -5.95763003801e-003
3.75500000000e+008 -9.85067097229e-001 -5.93445782284e-003 +1.19140797730e-002 -7.62147891336e-003 +1.19140797730e-002 -7.62147891336e-003 -9.85067097229e-001 -5.93445782284e-003
3.78400000000e+008 -9.85130166391e-001 -5.91133170853e-003 +1.18389753345e-002 -7.61087122397e-003 +1.18389753345e-002 -7.61087122397e-003 -9.85130166391e-001 -5.91133170853e-003
3.81300000000e+008 -9.85192446608e-001 -5.88825163916e-003 +1.17646963751e-002 -7.60030264353e-003 +1.17646963751e-002 -7.60030264353e-003 -9.85192446608e-001 -5.88825163916e-003
3.84200000000e+008 -9.85253952274e-001 -5.86521755400e-003 +1.16912279564e-002 -7.58977312680e-003 +1.16912279564e-002 -7.58977312680e-003 -9.85253952274e-001 -5.86521755400e-003
3.87100000000e+008 -9.85314697415e-001 -5.84222938769e-003 +1.16185555182e-002 -7.57928262377e-003 +1.16185555182e-002 -7.57928262377e-003 -9.85314697415e-001 -5.84222938769e-003
3.90000000000e+008 -9.85374695701e-001 -5.81928707048e-003 +1.15466648663e-002 -7.56883107992e-003 +1.15466648663e-002 -7.56883107992e-003 -9.85374695701e-001 -5.81928707048e-003
3.92900000000e+008 -9.85433960456e-001 -5.79639052841e-003 +1.14755421601e-002 -7.55841843643e-003 +1.14755421601e-002 -7.55841843643e-003 -9.85433960456e-001 -5.79639052841e-003
3.95800000000e+008 -9.85492504671e-001 -5.77353968354e-003 +1.14051739019e-002 -7.54804463033e-003 +1.14051739019e-002 -7.54804463033e-003 -9.85492504671e-001 -5.77353968354e-003
3.98700000000e+008 -9.85550341016e-001 -5.75073445413e-003 +1.13355469254e-002 -7.53770959476e-003 +1.13355469254e-002 -7.53770959476e-003 -9.85550341016e-001 -5.75073445413e-003
4.01600000000e+008 -9.85607481845e-001 -5.72797475478e-003 +1.12666483854e-002 -7.52741325908e-003 +1.12666483854e-002 -7.52741325908e-003 -9.85607481845e-001 -5.72797475478e-003
4.04500000000e+008 -9.85663939212e-001 -5.70526049666e-003 +1.11984657476e-002 -7.51715554908e-003 +1.11984657476e-002 -7.51715554908e-003 -9.85663939212e-001 -5.70526049666e-003
4.07400000000e+008 -9.85719724878e-001 -5.68259158763e-003 +1.11309867790e-002 -7.50693638712e-003 +1.11309867790e-002 -7.50693638712e-003 -9.85719724878e-001 -5.68259158763e-003
4.10300000000e+008 -9.85774850318e-001 -5.65996793242e-003 +1.10641995384e-002 -7.49675569233e-003 +1.10641995384e-002 -7.49675569233e-003 -9.85774850318e-001 -5.65996793242e-003
4.13200000000e+008 -9.85829326734e-001 -5.63738943276e-003 +1.09980923675e-002 -7.48661338072e-003 +1.09980923675e-002 -7.48661338072e-003 -9.85829326734e-001 -5.63738943276e-003
4.16100000000e+008 -9.85883165060e-001 -5.61485598755e-003 +1.09326538821e-002 -7.47650936532e-003 +1.09326538821e-002 -7.47650936532e-003 -9.85883165060e-001 -5.61485598755e-003
4.19000000000e+008 -9.85936375972e-001 -5.59236749298e-003 +1.08678729640e-002 -7.46644355638e-003 +1.08678729640e-002 -7.46644355638e-003 -9.85936375972e-001 -5.59236749298e-003
